!    1/12/2021   23:21:20 
! Ref Plane: 213.526 mm
# MHZ S MA R  50
!
0.3000        0.29558       2.43          7.66E-1       -116.72       1.997E-2      62.81         0.91974       -41.91         
0.9000        0.3167        3.63          1.407E0       -146.36       3.658E-2      33.69         0.72074       -95.94         
1.4999        0.32486       2.64          1.577E0       -158.53       4.093E-2      21.74         0.63752       -122.26        
2.0999        0.32796       1.93          1.637E0       -164.66       4.246E-2      15.69         0.60466       -136.80        
2.6999        0.32941       1.46          1.664E0       -168.37       4.314E-2      12.02         0.58893       -145.80        
3.2999        0.33022       1.11          1.679E0       -170.89       4.358E-2      9.56          0.58076       -151.90        
3.8998        0.33071       0.85          1.688E0       -172.73       4.377E-2      7.76          0.57584       -156.29        
4.4998        0.33105       0.64          1.694E0       -174.16       4.397E-2      6.34          0.57278       -159.60        
5.0998        0.33128       0.46          1.698E0       -175.31       4.406E-2      5.16          0.57077       -162.19        
5.6997        0.33148       0.31          1.70E0        -176.28       4.415E-2      4.27          0.56929       -164.28        
6.2997        0.33163       0.17          1.702E0       -177.12       4.421E-2      3.55          0.5683        -166.02        
6.8997        0.33173       0.04          1.704E0       -177.86       4.424E-2      2.82          0.56738       -167.48        
7.4996        0.33172       -0.07         1.705E0       -178.52       4.436E-2      2.11          0.56672       -168.73        
8.0996        0.33183       -0.17         1.706E0       -179.12       4.436E-2      1.59          0.56618       -169.83        
8.6996        0.33193       -0.26         1.707E0       -179.68       4.436E-2      1.06          0.56574       -170.79        
9.2996        0.33193       -0.36         1.707E0       179.81        4.439E-2      0.54          0.56546       -171.64        
9.8995        0.33198       -0.45         1.707E0       179.33        4.444E-2      0.08          0.56518       -172.42        
10.4995       0.33208       -0.53         1.708E0       178.88        4.445E-2      -0.33         0.56483       -173.11        
11.0995       0.33213       -0.62         1.708E0       178.44        4.443E-2      -0.76         0.56463       -173.75        
11.6994       0.3322        -0.69         1.708E0       178.03        4.451E-2      -1.12         0.56441       -174.33        
12.2994       0.33214       -0.78         1.708E0       177.63        4.449E-2      -1.47         0.56422       -174.87        
12.8994       0.33219       -0.85         1.708E0       177.24        4.452E-2      -1.87         0.56395       -175.38        
13.4993       0.33226       -0.92         1.708E0       176.87        4.454E-2      -2.26         0.56383       -175.84        
14.0993       0.33226       -0.99         1.708E0       176.50        4.453E-2      -2.52         0.56364       -176.29        
14.6993       0.33229       -1.07         1.709E0       176.14        4.454E-2      -2.86         0.56359       -176.71        
15.2993       0.33228       -1.15         1.709E0       175.80        4.456E-2      -3.18         0.56341       -177.11        
15.8992       0.33233       -1.22         1.709E0       175.46        4.459E-2      -3.52         0.56333       -177.48        
16.4992       0.33235       -1.29         1.709E0       175.13        4.461E-2      -3.83         0.56317       -177.84        
17.0992       0.33244       -1.35         1.709E0       174.80        4.46E-2       -4.15         0.56314       -178.18        
17.6991       0.33238       -1.43         1.708E0       174.48        4.459E-2      -4.45         0.56295       -178.51        
18.2991       0.33239       -1.49         1.708E0       174.16        4.456E-2      -4.66         0.56284       -178.83        
18.8991       0.33242       -1.55         1.708E0       173.85        4.463E-2      -4.99         0.56266       -179.14        
19.4990       0.33249       -1.61         1.708E0       173.55        4.463E-2      -5.30         0.56252       -179.43        
20.0990       0.3325        -1.68         1.708E0       173.25        4.466E-2      -5.53         0.56239       -179.72        
20.6990       0.33252       -1.74         1.708E0       172.96        4.465E-2      -5.88         0.5623        -179.99        
21.2990       0.33251       -1.80         1.708E0       172.65        4.461E-2      -6.14         0.5622        179.74         
21.8989       0.33254       -1.86         1.708E0       172.35        4.464E-2      -6.42         0.56201       179.48         
22.4989       0.33261       -1.93         1.708E0       172.06        4.468E-2      -6.75         0.56191       179.24         
23.0989       0.33263       -1.99         1.708E0       171.78        4.465E-2      -7.01         0.56192       178.99         
23.6988       0.33259       -2.05         1.708E0       171.49        4.468E-2      -7.23         0.56176       178.75         
24.2988       0.33263       -2.12         1.708E0       171.20        4.467E-2      -7.45         0.56168       178.51         
24.8988       0.33266       -2.17         1.708E0       170.91        4.469E-2      -7.70         0.56155       178.28         
25.4987       0.33266       -2.23         1.708E0       170.63        4.47E-2       -8.00         0.56151       178.07         
26.0987       0.33265       -2.30         1.708E0       170.34        4.467E-2      -8.30         0.56134       177.84         
26.6987       0.33263       -2.35         1.708E0       170.06        4.471E-2      -8.56         0.56131       177.63         
27.2987       0.33263       -2.41         1.708E0       169.78        4.472E-2      -8.80         0.56119       177.41         
27.8986       0.33267       -2.47         1.708E0       169.51        4.472E-2      -9.04         0.56108       177.21         
28.4986       0.33267       -2.53         1.708E0       169.24        4.472E-2      -9.29         0.56101       177.00         
29.0986       0.33272       -2.60         1.707E0       168.97        4.473E-2      -9.57         0.56087       176.80         
29.6985       0.33264       -2.66         1.707E0       168.69        4.47E-2       -9.84         0.56083       176.60         
30.2985       0.33263       -2.72         1.707E0       168.42        4.471E-2      -10.07        0.56068       176.40         
30.8985       0.33264       -2.77         1.707E0       168.15        4.47E-2       -10.37        0.56063       176.21         
31.4984       0.33263       -2.84         1.707E0       167.88        4.475E-2      -10.59        0.56053       176.02         
32.0984       0.33266       -2.89         1.707E0       167.61        4.476E-2      -10.80        0.56051       175.82         
32.6984       0.33263       -2.94         1.707E0       167.35        4.474E-2      -11.03        0.56035       175.64         
33.2984       0.33264       -3.00         1.707E0       167.07        4.477E-2      -11.27        0.56024       175.46         
33.8983       0.33258       -3.07         1.707E0       166.80        4.474E-2      -11.52        0.56008       175.27         
34.4983       0.33264       -3.12         1.706E0       166.55        4.478E-2      -11.79        0.55997       175.10         
35.0983       0.33262       -3.19         1.706E0       166.27        4.481E-2      -12.06        0.55979       174.92         
35.6982       0.3326        -3.26         1.706E0       166.01        4.473E-2      -12.34        0.55977       174.75         
36.2982       0.33255       -3.30         1.706E0       165.76        4.479E-2      -12.59        0.55968       174.57         
36.8982       0.33253       -3.36         1.706E0       165.49        4.482E-2      -12.86        0.55957       174.40         
37.4981       0.3325        -3.41         1.706E0       165.23        4.482E-2      -13.05        0.5595        174.22         
38.0981       0.33252       -3.47         1.706E0       164.97        4.476E-2      -13.32        0.55938       174.05         
38.6981       0.33242       -3.53         1.706E0       164.72        4.483E-2      -13.59        0.55934       173.88         
39.2981       0.33244       -3.57         1.705E0       164.45        4.48E-2       -13.80        0.55926       173.71         
39.8980       0.33245       -3.64         1.705E0       164.19        4.479E-2      -14.04        0.55914       173.55         
40.4980       0.33241       -3.70         1.705E0       163.93        4.474E-2      -14.28        0.55908       173.38         
41.0980       0.33238       -3.75         1.705E0       163.67        4.48E-2       -14.53        0.55896       173.21         
41.6979       0.33236       -3.81         1.705E0       163.41        4.482E-2      -14.70        0.55886       173.05         
42.2979       0.33241       -3.87         1.705E0       163.15        4.484E-2      -14.94        0.55875       172.90         
42.8979       0.33237       -3.93         1.704E0       162.89        4.481E-2      -15.22        0.55866       172.73         
43.4978       0.33238       -3.99         1.704E0       162.63        4.48E-2       -15.49        0.55853       172.57         
44.0978       0.33231       -4.04         1.704E0       162.38        4.478E-2      -15.78        0.55844       172.41         
44.6978       0.33228       -4.12         1.704E0       162.11        4.481E-2      -15.95        0.55832       172.26         
45.2978       0.3323        -4.15         1.704E0       161.87        4.482E-2      -16.20        0.55822       172.10         
45.8977       0.33226       -4.22         1.704E0       161.61        4.48E-2       -16.47        0.5582        171.95         
46.4977       0.33224       -4.28         1.704E0       161.35        4.477E-2      -16.68        0.55816       171.79         
47.0977       0.33222       -4.34         1.703E0       161.10        4.486E-2      -16.93        0.55777       171.64         
47.6976       0.33222       -4.41         1.703E0       160.84        4.488E-2      -17.20        0.55765       171.49         
48.2976       0.33214       -4.47         1.703E0       160.58        4.483E-2      -17.41        0.55754       171.33         
48.8976       0.33215       -4.53         1.703E0       160.33        4.485E-2      -17.69        0.55753       171.18         
49.4975       0.3321        -4.59         1.703E0       160.07        4.484E-2      -18.00        0.55745       171.02         
50.0975       0.33207       -4.65         1.703E0       159.82        4.483E-2      -18.16        0.55738       170.87         
50.6975       0.33208       -4.70         1.703E0       159.56        4.485E-2      -18.45        0.55725       170.73         
51.2975       0.33205       -4.76         1.703E0       159.30        4.482E-2      -18.73        0.55721       170.58         
51.8974       0.33198       -4.82         1.703E0       159.05        4.482E-2      -18.85        0.55721       170.43         
52.4974       0.33198       -4.88         1.703E0       158.77        4.481E-2      -19.06        0.55709       170.28         
53.0974       0.33192       -4.94         1.703E0       158.50        4.477E-2      -19.31        0.55698       170.13         
53.6973       0.3319        -5.02         1.706E0       158.12        4.457E-2      -19.56        0.55689       169.98         
54.2973       0.3319        -5.05         1.702E0       158.03        4.484E-2      -19.82        0.5568        169.84         
54.8973       0.3319        -5.10         1.702E0       157.78        4.481E-2      -20.09        0.55673       169.70         
55.4972       0.33187       -5.16         1.702E0       157.53        4.485E-2      -20.30        0.55666       169.55         
56.0972       0.33184       -5.22         1.702E0       157.28        4.481E-2      -20.55        0.55659       169.40         
56.6972       0.33181       -5.29         1.702E0       157.02        4.484E-2      -20.82        0.55651       169.26         
57.2972       0.33181       -5.35         1.702E0       156.77        4.486E-2      -21.09        0.55644       169.11         
57.8971       0.33174       -5.41         1.702E0       156.51        4.485E-2      -21.30        0.55626       168.98         
58.4971       0.33167       -5.47         1.701E0       156.27        4.477E-2      -21.53        0.55625       168.83         
59.0971       0.33162       -5.53         1.701E0       156.01        4.476E-2      -21.82        0.55622       168.69         
59.6970       0.33159       -5.59         1.701E0       155.76        4.483E-2      -21.97        0.55608       168.54         
60.2970       0.33163       -5.66         1.701E0       155.51        4.479E-2      -22.29        0.55604       168.41         
60.8970       0.33152       -5.71         1.701E0       155.26        4.481E-2      -22.49        0.55594       168.26         
61.4969       0.3315        -5.77         1.701E0       155.01        4.478E-2      -22.76        0.55585       168.12         
62.0969       0.33148       -5.82         1.701E0       154.76        4.478E-2      -22.94        0.55583       167.98         
62.6969       0.33147       -5.88         1.701E0       154.51        4.48E-2       -23.23        0.55581       167.84         
63.2969       0.33142       -5.94         1.701E0       154.26        4.481E-2      -23.45        0.55565       167.69         
63.8968       0.33131       -6.00         1.70E0        154.01        4.477E-2      -23.68        0.55558       167.55         
64.4968       0.3313        -6.06         1.70E0        153.75        4.474E-2      -23.90        0.55552       167.42         
65.0968       0.33131       -6.12         1.70E0        153.50        4.476E-2      -24.18        0.5554        167.28         
65.6967       0.33125       -6.19         1.70E0        153.25        4.482E-2      -24.30        0.55528       167.14         
66.2967       0.33122       -6.25         1.70E0        153.00        4.478E-2      -24.63        0.55522       167.00         
66.8967       0.33119       -6.30         1.70E0        152.76        4.479E-2      -24.84        0.55516       166.86         
67.4966       0.33114       -6.35         1.70E0        152.50        4.479E-2      -25.11        0.55507       166.73         
68.0966       0.33112       -6.41         1.70E0        152.25        4.478E-2      -25.37        0.55509       166.59         
68.6966       0.33111       -6.47         1.70E0        152.01        4.481E-2      -25.61        0.55496       166.46         
69.2966       0.33106       -6.53         1.70E0        151.75        4.477E-2      -25.82        0.55489       166.32         
69.8965       0.33103       -6.59         1.70E0        151.50        4.476E-2      -26.02        0.55478       166.19         
70.4965       0.33097       -6.64         1.70E0        151.25        4.479E-2      -26.29        0.55465       166.05         
71.0965       0.33091       -6.71         1.699E0       151.01        4.48E-2       -26.52        0.55456       165.91         
71.6964       0.33089       -6.77         1.699E0       150.77        4.476E-2      -26.72        0.55455       165.77         
72.2964       0.33088       -6.82         1.699E0       150.51        4.477E-2      -27.01        0.55442       165.64         
72.8964       0.33082       -6.89         1.699E0       150.26        4.477E-2      -27.26        0.55432       165.50         
73.4963       0.33077       -6.94         1.699E0       150.02        4.478E-2      -27.53        0.55428       165.37         
74.0963       0.33073       -7.00         1.699E0       149.78        4.481E-2      -27.72        0.55416       165.24         
74.6963       0.33072       -7.06         1.699E0       149.52        4.474E-2      -27.93        0.55414       165.10         
75.2963       0.33068       -7.11         1.699E0       149.28        4.479E-2      -28.23        0.55404       164.97         
75.8962       0.33059       -7.17         1.699E0       149.03        4.471E-2      -28.42        0.55396       164.84         
76.4962       0.33059       -7.23         1.699E0       148.78        4.476E-2      -28.65        0.5539        164.70         
77.0962       0.33054       -7.29         1.699E0       148.53        4.474E-2      -28.96        0.55385       164.57         
77.6961       0.33049       -7.36         1.699E0       148.28        4.473E-2      -29.18        0.55377       164.44         
78.2961       0.3304        -7.41         1.699E0       148.03        4.475E-2      -29.43        0.55366       164.30         
78.8961       0.33037       -7.46         1.698E0       147.79        4.47E-2       -29.64        0.55354       164.17         
79.4960       0.3303        -7.52         1.698E0       147.54        4.471E-2      -29.87        0.5535        164.04         
80.0960       0.33026       -7.59         1.698E0       147.29        4.474E-2      -30.07        0.55343       163.91         
80.6960       0.33022       -7.65         1.698E0       147.04        4.472E-2      -30.31        0.55334       163.78         
81.2960       0.3301        -7.69         1.698E0       146.79        4.469E-2      -30.59        0.55328       163.65         
81.8959       0.33005       -7.77         1.698E0       146.54        4.47E-2       -30.85        0.5532        163.52         
82.4959       0.33006       -7.82         1.698E0       146.29        4.471E-2      -31.11        0.55311       163.38         
83.0959       0.32996       -7.88         1.698E0       146.04        4.464E-2      -31.33        0.55311       163.26         
83.6958       0.32987       -7.94         1.698E0       145.80        4.468E-2      -31.58        0.55305       163.12         
84.2958       0.32983       -8.00         1.698E0       145.56        4.465E-2      -31.78        0.55297       162.99         
84.8958       0.32975       -8.06         1.698E0       145.31        4.466E-2      -31.99        0.55291       162.85         
85.4957       0.3297        -8.12         1.697E0       145.07        4.466E-2      -32.27        0.5528        162.72         
86.0957       0.32969       -8.17         1.697E0       144.82        4.464E-2      -32.55        0.55266       162.60         
86.6957       0.32961       -8.23         1.697E0       144.57        4.461E-2      -32.75        0.5526        162.46         
87.2957       0.32954       -8.29         1.697E0       144.33        4.46E-2       -32.98        0.55253       162.34         
87.8956       0.32948       -8.36         1.697E0       144.08        4.462E-2      -33.21        0.55251       162.21         
88.4956       0.32941       -8.41         1.697E0       143.83        4.463E-2      -33.50        0.55229       162.08         
89.0956       0.32936       -8.46         1.697E0       143.59        4.457E-2      -33.72        0.55233       161.95         
89.6955       0.32933       -8.53         1.697E0       143.34        4.456E-2      -33.96        0.55221       161.82         
90.2955       0.32926       -8.59         1.697E0       143.09        4.457E-2      -34.16        0.55216       161.69         
90.8955       0.32925       -8.65         1.697E0       142.85        4.456E-2      -34.39        0.55205       161.57         
91.4954       0.32914       -8.71         1.697E0       142.61        4.454E-2      -34.66        0.55205       161.44         
92.0954       0.32911       -8.76         1.696E0       142.36        4.456E-2      -34.89        0.55194       161.31         
