!    1/12/2021   23:20:22 
! Ref Plane: 213.526 mm
# MHZ S MA R  50
!
0.3000        0.37594       -2.50         8.035E-1      63.10         2.009E-2      62.64         0.91728       -41.99         
0.9000        0.35008       -3.67         1.476E0       33.48         3.666E-2      33.58         0.71649       -95.98         
1.4999        0.3413        -3.01         1.653E0       21.35         4.094E-2      21.64         0.63257       -122.27        
2.0999        0.33784       -2.47         1.715E0       15.25         4.244E-2      15.64         0.59965       -136.79        
2.6999        0.33631       -2.11         1.744E0       11.57         4.315E-2      11.98         0.58398       -145.80        
3.2999        0.33549       -1.88         1.76E0        9.05          4.355E-2      9.52          0.57566       -151.89        
3.8998        0.33496       -1.72         1.769E0       7.22          4.38E-2       7.72          0.57074       -156.28        
4.4998        0.33465       -1.62         1.775E0       5.79          4.396E-2      6.29          0.56763       -159.59        
5.0998        0.33442       -1.54         1.779E0       4.64          4.405E-2      5.16          0.56566       -162.19        
5.6997        0.33431       -1.50         1.782E0       3.67          4.412E-2      4.20          0.56421       -164.29        
6.2997        0.33423       -1.47         1.784E0       2.84          4.417E-2      3.53          0.5631        -166.02        
6.8997        0.33419       -1.46         1.785E0       2.10          4.422E-2      2.78          0.56224       -167.48        
7.4996        0.3341        -1.46         1.787E0       1.44          4.43E-2       2.08          0.56158       -168.74        
8.0996        0.33405       -1.47         1.788E0       0.84          4.433E-2      1.56          0.56096       -169.84        
8.6996        0.33406       -1.48         1.789E0       0.28          4.434E-2      1.05          0.5606        -170.81        
9.2996        0.33403       -1.51         1.789E0       -0.23         4.435E-2      0.53          0.56027       -171.66        
9.8995        0.33404       -1.53         1.789E0       -0.71         4.437E-2      0.06          0.55997       -172.43        
10.4995       0.33402       -1.55         1.79E0        -1.16         4.443E-2      -0.34         0.5597        -173.13        
11.0995       0.334         -1.58         1.79E0        -1.60         4.437E-2      -0.78         0.55945       -173.77        
11.6994       0.33397       -1.63         1.79E0        -2.01         4.446E-2      -1.14         0.55923       -174.35        
12.2994       0.33404       -1.66         1.791E0       -2.41         4.446E-2      -1.48         0.55902       -174.89        
12.8994       0.33397       -1.70         1.79E0        -2.80         4.447E-2      -1.87         0.55876       -175.40        
13.4993       0.334         -1.75         1.791E0       -3.18         4.449E-2      -2.23         0.55862       -175.86        
14.0993       0.33401       -1.79         1.791E0       -3.54         4.452E-2      -2.54         0.55845       -176.31        
14.6993       0.33401       -1.84         1.791E0       -3.90         4.452E-2      -2.88         0.55837       -176.73        
15.2993       0.33405       -1.89         1.791E0       -4.25         4.45E-2       -3.18         0.55819       -177.13        
15.8992       0.33406       -1.93         1.791E0       -4.58         4.449E-2      -3.55         0.55808       -177.51        
16.4992       0.33406       -1.98         1.791E0       -4.92         4.456E-2      -3.88         0.55794       -177.87        
17.0992       0.33408       -2.03         1.791E0       -5.25         4.454E-2      -4.14         0.55795       -178.21        
17.6991       0.33409       -2.08         1.791E0       -5.57         4.458E-2      -4.42         0.55773       -178.54        
18.2991       0.33414       -2.13         1.791E0       -5.89         4.452E-2      -4.72         0.55765       -178.85        
18.8991       0.3341        -2.18         1.791E0       -6.20         4.456E-2      -5.00         0.55749       -179.17        
19.4990       0.3342        -2.22         1.791E0       -6.51         4.458E-2      -5.27         0.55732       -179.46        
20.0990       0.3342        -2.28         1.791E0       -6.82         4.46E-2       -5.56         0.55721       -179.74        
20.6990       0.33416       -2.32         1.791E0       -7.11         4.459E-2      -5.89         0.55707       179.99         
21.2990       0.33422       -2.38         1.791E0       -7.42         4.455E-2      -6.14         0.55702       179.72         
21.8989       0.33424       -2.43         1.791E0       -7.72         4.459E-2      -6.41         0.55689       179.46         
22.4989       0.33429       -2.48         1.791E0       -8.01         4.463E-2      -6.75         0.55675       179.21         
23.0989       0.33428       -2.54         1.791E0       -8.29         4.458E-2      -6.97         0.55666       178.96         
23.6988       0.33425       -2.59         1.791E0       -8.59         4.461E-2      -7.20         0.55658       178.73         
24.2988       0.3343        -2.64         1.791E0       -8.87         4.462E-2      -7.48         0.5565        178.48         
24.8988       0.33434       -2.70         1.791E0       -9.16         4.46E-2       -7.75         0.55636       178.26         
25.4987       0.33428       -2.75         1.79E0        -9.45         4.461E-2      -7.98         0.55634       178.04         
26.0987       0.33425       -2.81         1.79E0        -9.73         4.463E-2      -8.29         0.5562        177.81         
26.6987       0.33428       -2.86         1.79E0        -10.02        4.467E-2      -8.59         0.55606       177.60         
27.2987       0.33429       -2.92         1.79E0        -10.30        4.467E-2      -8.82         0.556         177.38         
27.8986       0.33435       -2.96         1.79E0        -10.57        4.465E-2      -9.02         0.55593       177.18         
28.4986       0.33435       -3.03         1.79E0        -10.85        4.465E-2      -9.27         0.55584       176.97         
29.0986       0.33432       -3.08         1.79E0        -11.12        4.466E-2      -9.57         0.55574       176.77         
29.6985       0.33429       -3.14         1.79E0        -11.40        4.461E-2      -9.81         0.5557        176.56         
30.2985       0.3343        -3.20         1.79E0        -11.68        4.466E-2      -10.08        0.5555        176.37         
30.8985       0.33427       -3.25         1.79E0        -11.94        4.463E-2      -10.34        0.5555        176.18         
31.4984       0.33427       -3.31         1.79E0        -12.22        4.467E-2      -10.55        0.55539       175.99         
32.0984       0.33428       -3.37         1.79E0        -12.49        4.465E-2      -10.79        0.55535       175.79         
32.6984       0.33423       -3.42         1.79E0        -12.76        4.465E-2      -11.05        0.55522       175.61         
33.2984       0.33423       -3.47         1.789E0       -13.03        4.467E-2      -11.29        0.55511       175.42         
33.8983       0.33423       -3.53         1.789E0       -13.30        4.468E-2      -11.48        0.55496       175.25         
34.4983       0.33429       -3.59         1.789E0       -13.57        4.466E-2      -11.79        0.5548        175.07         
35.0983       0.33424       -3.66         1.789E0       -13.84        4.472E-2      -12.02        0.55476       174.89         
35.6982       0.33422       -3.72         1.789E0       -14.10        4.466E-2      -12.32        0.55463       174.72         
36.2982       0.33414       -3.77         1.789E0       -14.36        4.465E-2      -12.57        0.55453       174.54         
36.8982       0.33412       -3.82         1.789E0       -14.62        4.472E-2      -12.81        0.55441       174.36         
37.4981       0.33407       -3.88         1.788E0       -14.89        4.473E-2      -13.06        0.55438       174.20         
38.0981       0.33414       -3.93         1.788E0       -15.15        4.467E-2      -13.27        0.5543        174.02         
38.6981       0.33407       -3.99         1.788E0       -15.41        4.474E-2      -13.58        0.55416       173.85         
39.2981       0.33399       -4.03         1.788E0       -15.68        4.473E-2      -13.76        0.55417       173.68         
39.8980       0.33401       -4.09         1.788E0       -15.94        4.468E-2      -13.99        0.55404       173.52         
40.4980       0.33401       -4.16         1.788E0       -16.21        4.468E-2      -14.28        0.55397       173.35         
41.0980       0.33393       -4.21         1.787E0       -16.46        4.469E-2      -14.53        0.55382       173.19         
41.6979       0.33394       -4.27         1.788E0       -16.72        4.471E-2      -14.68        0.55367       173.02         
42.2979       0.33393       -4.34         1.787E0       -16.99        4.475E-2      -14.94        0.55365       172.86         
42.8979       0.33391       -4.39         1.787E0       -17.25        4.466E-2      -15.19        0.55355       172.70         
43.4978       0.33389       -4.45         1.787E0       -17.51        4.469E-2      -15.41        0.55348       172.54         
44.0978       0.33385       -4.50         1.787E0       -17.76        4.465E-2      -15.75        0.55336       172.38         
44.6978       0.33384       -4.56         1.787E0       -18.03        4.467E-2      -15.91        0.55326       172.22         
45.2978       0.33376       -4.62         1.787E0       -18.28        4.471E-2      -16.19        0.55314       172.07         
45.8977       0.33376       -4.68         1.786E0       -18.54        4.469E-2      -16.36        0.5531        171.91         
46.4977       0.33373       -4.73         1.786E0       -18.80        4.468E-2      -16.70        0.55303       171.76         
47.0977       0.33372       -4.80         1.786E0       -19.07        4.471E-2      -16.81        0.55273       171.60         
47.6976       0.33368       -4.86         1.786E0       -19.32        4.474E-2      -17.11        0.55261       171.45         
48.2976       0.33363       -4.92         1.786E0       -19.58        4.474E-2      -17.38        0.55252       171.29         
48.8976       0.33359       -4.98         1.786E0       -19.84        4.473E-2      -17.62        0.5525        171.14         
49.4975       0.3336        -5.04         1.785E0       -20.10        4.468E-2      -17.95        0.55242       170.98         
50.0975       0.33358       -5.09         1.786E0       -20.36        4.472E-2      -18.15        0.55233       170.83         
50.6975       0.33354       -5.14         1.785E0       -20.62        4.473E-2      -18.40        0.55225       170.68         
51.2975       0.33349       -5.21         1.785E0       -20.88        4.467E-2      -18.62        0.55219       170.53         
51.8974       0.33339       -5.28         1.785E0       -21.14        4.468E-2      -18.78        0.55208       170.38         
52.4974       0.33339       -5.32         1.785E0       -21.41        4.466E-2      -19.04        0.55205       170.23         
53.0974       0.33334       -5.39         1.786E0       -21.69        4.462E-2      -19.25        0.55195       170.09         
53.6973       0.33335       -5.48         1.789E0       -22.08        4.435E-2      -19.48        0.55181       169.94         
54.2973       0.33329       -5.50         1.785E0       -22.16        4.47E-2       -19.76        0.55175       169.79         
54.8973       0.33328       -5.56         1.785E0       -22.41        4.467E-2      -20.02        0.55171       169.64         
55.4972       0.33325       -5.63         1.785E0       -22.67        4.469E-2      -20.24        0.55162       169.50         
56.0972       0.33322       -5.69         1.784E0       -22.92        4.467E-2      -20.51        0.55153       169.35         
56.6972       0.33314       -5.76         1.784E0       -23.18        4.471E-2      -20.77        0.55148       169.21         
57.2972       0.33313       -5.80         1.784E0       -23.44        4.471E-2      -20.97        0.55142       169.06         
57.8971       0.33308       -5.88         1.784E0       -23.69        4.467E-2      -21.22        0.55123       168.93         
58.4971       0.333         -5.94         1.784E0       -23.94        4.464E-2      -21.44        0.55125       168.78         
59.0971       0.33295       -6.01         1.784E0       -24.20        4.464E-2      -21.73        0.55117       168.63         
59.6970       0.3329        -6.06         1.784E0       -24.45        4.463E-2      -21.87        0.55108       168.49         
60.2970       0.33294       -6.13         1.784E0       -24.71        4.464E-2      -22.18        0.55093       168.35         
60.8970       0.33286       -6.18         1.783E0       -24.96        4.466E-2      -22.38        0.55088       168.20         
61.4969       0.33283       -6.24         1.783E0       -25.21        4.463E-2      -22.62        0.55083       168.07         
62.0969       0.33274       -6.30         1.783E0       -25.46        4.46E-2       -22.83        0.55067       167.93         
62.6969       0.33274       -6.37         1.783E0       -25.72        4.464E-2      -23.08        0.55067       167.79         
63.2969       0.3327        -6.42         1.783E0       -25.97        4.465E-2      -23.28        0.55061       167.64         
63.8968       0.33264       -6.48         1.783E0       -26.22        4.461E-2      -23.58        0.55057       167.50         
64.4968       0.33256       -6.55         1.783E0       -26.48        4.462E-2      -23.76        0.55043       167.37         
65.0968       0.33252       -6.61         1.783E0       -26.74        4.462E-2      -24.03        0.55035       167.23         
65.6967       0.33248       -6.68         1.783E0       -26.99        4.461E-2      -24.19        0.55028       167.09         
66.2967       0.33245       -6.74         1.783E0       -27.24        4.456E-2      -24.48        0.55023       166.96         
66.8967       0.33243       -6.80         1.783E0       -27.49        4.458E-2      -24.68        0.55015       166.81         
67.4966       0.33235       -6.86         1.782E0       -27.75        4.458E-2      -24.96        0.55006       166.68         
68.0966       0.33235       -6.92         1.782E0       -28.00        4.457E-2      -25.21        0.55003       166.54         
68.6966       0.33233       -6.97         1.782E0       -28.25        4.462E-2      -25.46        0.54999       166.41         
69.2966       0.33228       -7.04         1.782E0       -28.51        4.46E-2       -25.67        0.54994       166.27         
69.8965       0.33222       -7.10         1.782E0       -28.76        4.459E-2      -25.88        0.54984       166.14         
70.4965       0.3322        -7.16         1.782E0       -29.01        4.457E-2      -26.13        0.54972       166.00         
71.0965       0.33209       -7.22         1.782E0       -29.26        4.46E-2       -26.38        0.5496        165.86         
71.6964       0.33205       -7.29         1.782E0       -29.51        4.46E-2       -26.57        0.5496        165.72         
72.2964       0.33203       -7.34         1.782E0       -29.76        4.457E-2      -26.81        0.5495        165.59         
72.8964       0.33197       -7.41         1.782E0       -30.01        4.458E-2      -27.03        0.54939       165.45         
73.4963       0.33187       -7.46         1.781E0       -30.26        4.46E-2       -27.37        0.54933       165.32         
74.0963       0.33187       -7.52         1.781E0       -30.51        4.459E-2      -27.54        0.54925       165.18         
74.6963       0.33184       -7.59         1.781E0       -30.76        4.455E-2      -27.79        0.54924       165.05         
75.2963       0.33178       -7.64         1.781E0       -31.01        4.459E-2      -28.03        0.54915       164.92         
75.8962       0.33167       -7.70         1.781E0       -31.26        4.455E-2      -28.25        0.54905       164.79         
76.4962       0.33165       -7.76         1.781E0       -31.52        4.454E-2      -28.49        0.54902       164.65         
77.0962       0.33161       -7.83         1.781E0       -31.77        4.455E-2      -28.74        0.54892       164.51         
77.6961       0.33154       -7.89         1.781E0       -32.02        4.456E-2      -29.03        0.54887       164.38         
78.2961       0.33145       -7.95         1.781E0       -32.27        4.45E-2       -29.26        0.5488        164.25         
78.8961       0.33142       -7.99         1.781E0       -32.52        4.454E-2      -29.43        0.54867       164.11         
79.4960       0.33133       -8.06         1.781E0       -32.77        4.451E-2      -29.69        0.54866       163.98         
80.0960       0.33124       -8.12         1.78E0        -33.03        4.452E-2      -29.89        0.54856       163.86         
80.6960       0.33122       -8.18         1.78E0        -33.27        4.45E-2       -30.08        0.5485        163.72         
81.2960       0.33108       -8.24         1.78E0        -33.53        4.445E-2      -30.36        0.54843       163.59         
81.8959       0.33102       -8.30         1.78E0        -33.78        4.449E-2      -30.60        0.54831       163.46         
82.4959       0.33099       -8.36         1.78E0        -34.04        4.447E-2      -30.88        0.54825       163.33         
83.0959       0.33091       -8.42         1.78E0        -34.28        4.446E-2      -31.11        0.54824       163.20         
83.6958       0.33077       -8.49         1.78E0        -34.53        4.449E-2      -31.39        0.54814       163.06         
84.2958       0.33077       -8.54         1.78E0        -34.78        4.447E-2      -31.52        0.5481        162.93         
84.8958       0.33067       -8.60         1.779E0       -35.03        4.444E-2      -31.75        0.54801       162.80         
85.4957       0.33058       -8.66         1.779E0       -35.27        4.443E-2      -32.04        0.54795       162.66         
86.0957       0.33056       -8.72         1.779E0       -35.52        4.443E-2      -32.31        0.54779       162.54         
86.6957       0.33043       -8.79         1.779E0       -35.77        4.44E-2       -32.51        0.54775       162.40         
87.2957       0.33037       -8.85         1.779E0       -36.02        4.439E-2      -32.75        0.54766       162.27         
87.8956       0.33034       -8.91         1.779E0       -36.27        4.44E-2       -32.97        0.54759       162.14         
88.4956       0.33026       -8.98         1.779E0       -36.52        4.436E-2      -33.21        0.54751       162.02         
89.0956       0.33018       -9.02         1.779E0       -36.77        4.432E-2      -33.46        0.5474        161.89         
89.6955       0.33015       -9.09         1.778E0       -37.03        4.432E-2      -33.70        0.54736       161.76         
90.2955       0.33003       -9.16         1.778E0       -37.27        4.436E-2      -33.90        0.54727       161.63         
90.8955       0.32998       -9.22         1.778E0       -37.53        4.434E-2      -34.11        0.5472        161.50         
91.4954       0.32994       -9.29         1.778E0       -37.77        4.433E-2      -34.39        0.54719       161.38         
92.0954       0.32984       -9.34         1.778E0       -38.01        4.433E-2      -34.64        0.54715       161.24         
