!Created with skrf (http://scikit-rf.org).
# MHz S RI R 50.0 
!freq ReS11 ImS11 ReS12 ImS12 ReS13 ImS13
! ReS21 ImS21 ReS22 ImS22 ReS23 ImS23
! ReS31 ImS31 ReS32 ImS32 ReS33 ImS33
!
0.3 0.295314204739786 0.01253223359612155 1.0 0.0 0.009125145472492957 0.017763237883500895
 1.0 0.0 0.3755821884214836 -0.016398272486124417 0.009232959399885693 0.01784266125666411
 -0.34441720557601724 -0.6842023008607963 0.36353128893201736 0.7165593150377895 0.6831224436565291 -0.614006462411905
0.9 0.3160646094085264 0.02005125131845022 1.0 0.0 0.030436423680750238 0.02029089730706521
 1.0 0.0 0.34936208062227964 -0.022408547995614835 0.030541972439559605 0.02027667427122065
 -1.171376319495278 -0.7794398746059227 1.2310997680130407 0.814229305047563 -0.07461602145176119 -0.7147306518161738
1.4999 0.3245152121163242 0.014963178308671245 1.0 0.0 0.03801882154621626 0.015160280612078466
 1.0 0.0 0.3408291374677656 -0.017921748044734002 0.03805451850064066 0.015097589929667492
 -1.467570929222891 -0.5772040953595711 1.5395610176311798 0.60179803338865 -0.3390096406853724 -0.5369866036282954
2.0999 0.327773954500043 0.011045195851759997 1.0 0.0 0.04087789626074953 0.011482560572250403
 1.0 0.0 0.3375261208598562 -0.014559647567770605 0.040868641626943966 0.011441491667104543
 -1.578678544154866 -0.4330624137755117 1.6546102603664146 0.4510985327954268 -0.438916278621868 -0.4122416058872429
2.6999 0.32930305912573304 0.008393053701362185 1.0 0.0 0.04219415404497223 0.008984039427181578
 1.0 0.0 0.336081976110928 -0.012382303233794847 0.04221019800588915 0.008956655866093777
 -1.6298377990715187 -0.3354470878062703 1.7085626166753138 0.34978534117313237 -0.48504553818618823 -0.32963660735827116
3.2999 0.3301580329977679 0.006397002973642088 1.0 0.0 0.04297477069265983 0.007237781698373221
 1.0 0.0 0.3353094152582565 -0.011006186404294958 0.042950226306536846 0.00720281613101921
 -1.657821409520631 -0.26583674338779667 1.7380905514803051 0.2768415338327842 -0.5100309096687896 -0.2723880921340584
3.8998 0.33067360833273224 0.004906001652142312 1.0 0.0 0.04336916950052406 0.005909994656073189
 1.0 0.0 0.33480908167856904 -0.010053876145709862 0.04340301297708687 0.005883745789106526
 -1.674429893689419 -0.21360835919795065 1.7549734067460094 0.22232710499240843 -0.5248799505225745 -0.23056985738940244
4.4998 0.3310293474461097 0.0036977870953852155 1.0 0.0 0.04370108406334123 0.004855527951601479
 1.0 0.0 0.33451624295515836 -0.009460745169671944 0.04369536486922338 0.00481629410910914
 -1.685207997337257 -0.17236590646224614 1.7659445381053471 0.1790667147626611 -0.534425606228643 -0.19880395105772636
5.0998 0.33126932339224485 0.0026596577306681433 1.0 0.0 0.043881443739241195 0.003962637424722252
 1.0 0.0 0.3342992096393579 -0.00898748210015644 0.043871484264947226 0.003961738051725265
 -1.6923145400848287 -0.138836225162867 1.7731695874837594 0.14391182725083432 -0.5409838781731116 -0.17379507985492537
5.6997 0.3314751481831559 0.001793470645104685 1.0 0.0 0.04402745088477992 0.0032872585216700057
 1.0 0.0 0.33419544031257853 -0.008751215588805074 0.04400151473514309 0.00323126925727111
 -1.6964181534668399 -0.11029709238305822 1.7783456000597073 0.11406544940638036 -0.5455653161885309 -0.15350584948475815
6.2997 0.33162854025809824 0.000983964574011868 1.0 0.0 0.04412516735263953 0.00273746344296223
 1.0 0.0 0.33412000295581584 -0.008574177791813301 0.04408619611149946 0.0027195978413012373
 -1.6998503001434417 -0.08551582954196796 1.7818088740171267 0.0883919480146223 -0.5489440303951605 -0.13666360705585512
6.8997 0.33172991915941397 0.00023159121029317267 1.0 0.0 0.04418642645293132 0.0021765379205728546
 1.0 0.0 0.33408150732894787 -0.00851484355805297 0.04416795873239896 0.0021447194252635863
 -1.7028115760693092 -0.06362968178731152 1.7838011828949012 0.06540902004120296 -0.5513790418445481 -0.12243973339806008
7.4996 0.33171975243318913 -0.0004052723328101137 1.0 0.0 0.04432992316696133 0.0016332519742236014
 1.0 0.0 0.333991536546879 -0.008512550443596448 0.044270811791568485 0.0016078629654050095
 -1.7044312146452858 -0.044036740828490906 1.786435646249257 0.04490748055724407 -0.5532811373656745 -0.11020527714981547
8.0996 0.3318285393777546 -0.0009845579850868685 1.0 0.0 0.04434292020497175 0.0012308646129886888
 1.0 0.0 0.33394006219486666 -0.008569560157242716 0.04431356972478243 0.0012068298334255566
 -1.7057987848979386 -0.026201248838869776 1.7878078488238007 0.02621251006703327 -0.5547239371175285 -0.09946102789602027
8.6996 0.3319265824317515 -0.001506245390916504 1.0 0.0 0.044352408709338 0.0008206349248224857
 1.0 0.0 0.33394855810228985 -0.008628101842325958 0.04433255461993847 0.0008125274581031979
 -1.7069733769941027 -0.00953363694240354 1.788978637588406 0.008742668490249902 -0.5559254502192793 -0.09004072988061082
9.2996 0.3319234479859776 -0.0020855639764879824 1.0 0.0 0.044388028511766285 0.0004183597000472624
 1.0 0.0 0.33391400507975993 -0.00880216516511926 0.044348102564568274 0.0004102425167299456
 -1.7069906143346638 0.005660615988307631 1.7889855858124384 -0.007181486985751591 -0.5568982402759912 -0.08173951646487557
9.8995 0.33196976095491726 -0.0026073380170343885 1.0 0.0 0.04443995668097301 6.204992540531043e-05
 1.0 0.0 0.3339209086361666 -0.008918989606277386 0.04436997567142738 4.6464146854318834e-05
 -1.7068832913844907 0.019960701201314743 1.7888626444475237 -0.022168430260432 -0.5576654623123631 -0.07416104340404067
10.4995 0.3320657925511123 -0.0030717775638259377 1.0 0.0 0.04444926273573545 -0.000256012205881447
 1.0 0.0 0.33389778229590045 -0.00903500846039712 0.04442921772831221 -0.00026365138009840344
 -1.707673686664849 0.033385324208154724 1.7896331581166982 -0.03623754088308791 -0.5582161896812259 -0.06735433299157664
11.0995 0.33211055481917107 -0.00359392232837312 1.0 0.0 0.044426091394223086 -0.0005893245558576051
 1.0 0.0 0.3338730134107513 -0.009209284229748975 0.04436588853434906 -0.0006040153621511514
 -1.7073669544310486 0.04649820337222797 1.7893021059222343 -0.0499797333151883 -0.5587100374215664 -0.06109047439714488
11.6994 0.33217591108160704 -0.004000512105252873 1.0 0.0 0.04450149636618995 -0.0008700121665719842
 1.0 0.0 0.333834861805033 -0.009499786503626751 0.04445119986016663 -0.0008845512938900237
 -1.706990509414903 0.05871457031648974 1.7888986500284527 -0.06278232176639581 -0.5590808866039985 -0.0554099722008147
12.2994 0.3321092228487423 -0.004521470867362709 1.0 0.0 0.04447535808127411 -0.0011413253446960888
 1.0 0.0 0.3338998125902416 -0.009676608507196954 0.04444516821297912 -0.0011483129016039396
 -1.7065390095616284 0.07063008455620351 1.7894158716060709 -0.07531160896094205 -0.559379073011401 -0.05012052941619621
12.8994 0.3321534454720157 -0.004927957088764036 1.0 0.0 0.04449629038202285 -0.0014527705389016936
 1.0 0.0 0.33382300648407065 -0.009907635537104439 0.04444631701007539 -0.0014511389457537809
 -1.7060187157445963 0.08224440120250115 1.787862985841167 -0.08744108793414773 -0.559538896385257 -0.045118176582025035
13.4993 0.3322171679240625 -0.00533487924092847 1.0 0.0 0.04450535540241147 -0.0017563998704864026
 1.0 0.0 0.3338442193394621 -0.010199863412080769 0.044456306816512046 -0.0017311511303593615
 -1.7054520360877918 0.0932595979189547 1.7882421980229648 -0.09935210722473722 -0.5597534321504943 -0.04061509850175492
14.0993 0.33221040220327375 -0.005740754997304672 1.0 0.0 0.04448693658121689 -0.001957900308694524
 1.0 0.0 0.3338470122565138 -0.01043324050327057 0.044476260259534925 -0.0019729858910072927
 -1.7048142357045488 0.10427090552553532 1.7875826560599815 -0.1105859292746655 -0.5598755302986048 -0.036205980301234265
14.6993 0.3322320575379936 -0.006205162694990272 1.0 0.0 0.044484522505271115 -0.002222354039757936
 1.0 0.0 0.3338377804182364 -0.010724572971700853 0.04446376930809989 -0.0022368770453633402
 -1.7051231665395874 0.11504775934372179 1.786852543394569 -0.12181538558145946 -0.5600609956979968 -0.03209722591922379
15.2993 0.3322130716617537 -0.006668839259010966 1.0 0.0 0.04449138600999627 -0.0024718759899130605
 1.0 0.0 0.33386827258746254 -0.011017216502538875 0.04443147839867221 -0.0024685476111115617
 -1.704410441576599 0.12516407889112255 1.7860750815131787 -0.13272830593996002 -0.5600916538461294 -0.02817746816163136
15.8992 0.33225466487043315 -0.007075773585703504 1.0 0.0 0.04450587773900636 -0.0027376900263941027
 1.0 0.0 0.33387049408551156 -0.01125063460860759 0.04440463007281006 -0.002754800917832835
 -1.7036376980661059 0.13527599095190493 1.785281001069579 -0.14301310156765878 -0.5601691473872255 -0.02450717839703682
16.4992 0.33226576714958755 -0.007482144110883624 1.0 0.0 0.044510369390355194 -0.002979784679155767
 1.0 0.0 0.33386054892746225 -0.011541987257556207 0.04445786669171798 -0.0030152428130140406
 -1.7028303114285146 0.14508594170445205 1.7844009160733525 -0.1536045921077244 -0.560162177465171 -0.020981454347049986
17.0992 0.3323477247016721 -0.00783220822128536 1.0 0.0 0.0444830592393578 -0.0032276060335462826
 1.0 0.0 0.33387033696841545 -0.011834039572213597 0.0444237784478477 -0.003215510599662611
 -1.7019664372346934 0.15489107955800593 1.7834866252862192 -0.16387939902615367 -0.5602668256348899 -0.017656714949392728
17.6991 0.3322764836014795 -0.00829474806342923 1.0 0.0 0.04445557999390829 -0.003459697588694832
 1.0 0.0 0.33386987610485586 -0.01212575481065823 0.044447415134257304 -0.0034356495576521075
 -1.7000794595677304 0.1642979949843975 1.7825435388962965 -0.17383765972615672 -0.5601542954882428 -0.014424261735872333
18.2991 0.3322776117910396 -0.008642962596424063 1.0 0.0 0.04441270013838254 -0.0036201749154032843
 1.0 0.0 0.3339091327142046 -0.012418964934635153 0.04436902039981693 -0.0036633903369186266
 -1.699135336158226 0.17379041808590107 1.7815448500844073 -0.18379049795276778 -0.5601301659137788 -0.01134229683287294
18.8991 0.33229836773487587 -0.008991729574292591 1.0 0.0 0.044460847589994607 -0.003882000976206909
 1.0 0.0 0.33385819693080904 -0.012708829297348923 0.04439043574696818 -0.003883659896835648
 -1.6981701741373438 0.1829810363680964 1.7805243764744167 -0.1934268460694869 -0.5600140625289249 -0.008260381089584285
19.499 0.3323587417823137 -0.009341673344605606 1.0 0.0 0.044439193279977904 -0.004122499317740043
 1.0 0.0 0.3339491680812684 -0.012945776833729978 0.04439155707750515 -0.004094637985781195
 -1.6971888139525109 0.19187008572070233 1.7794517803945267 -0.2030575318739708 -0.5598937058393878 -0.005424304032449061
20.099 0.33235707643616236 -0.009748012249015921 1.0 0.0 0.044452146875932845 -0.00430374698611498
 1.0 0.0 0.33393542818984323 -0.013295480422536234 0.04439016962898963 -0.004321208200205844
 -1.6961609244790141 0.20075387485798651 1.778327093243553 -0.2126822734407724 -0.559793773725062 -0.0026384375828172927
20.699 0.3323666768864411 -0.010096657638249825 1.0 0.0 0.04441508018133992 -0.004574183258806563
 1.0 0.0 0.33388609760317733 -0.01352698884902081 0.04435459791472011 -0.00457577794735562
 -1.6951230957932735 0.2093363086237758 1.7772278372874053 -0.22168043299022133 -0.55968499147551 -4.564035970796768e-07
21.299 0.3323459263872094 -0.010444391501068438 1.0 0.0 0.04435409542682338 -0.004771406382634462
 1.0 0.0 0.3339316973458419 -0.013879117685395296 0.04429443961589289 -0.00476498888918102
 -1.6939656716613187 0.21850469842320866 1.7760024235878793 -0.2312928693452927 -0.5596037800979433 0.002636638161728768
21.8989 0.33236479101254784 -0.010793391273618008 1.0 0.0 0.04436006026639544 -0.004991458019633554
 1.0 0.0 0.3339394403959201 -0.014171370719154431 0.04431124334206655 -0.004978133533781813
 -1.6927983685010848 0.22737124620335186 1.77476703748773 -0.2405887832942874 -0.5594260605447489 0.005174528919202276
22.4989 0.3324213166430641 -0.011201800805750376 1.0 0.0 0.044370298656746104 -0.005251570918416186
 1.0 0.0 0.33397689955819365 -0.014464945955522692 0.044320645233898365 -0.005245694048543295
 -1.6916258608392267 0.23593631967110315 1.773526580196796 -0.249568566401013 -0.5592788230072203 0.007564759990295645
23.0989 0.33242939181452735 -0.011550599890197499 1.0 0.0 0.04431623528079022 -0.005449200908174024
 1.0 0.0 0.33395157860640917 -0.014814234583241642 0.04425054605294635 -0.005409766539886361
 -1.6904526633905983 0.24420031293106997 1.7722857853133922 -0.2582326377050213 -0.5592004983245498 0.010004265825747444
23.6988 0.3323771393823874 -0.01189728187364802 1.0 0.0 0.044324746683562954 -0.005623098028486988
 1.0 0.0 0.33390855423608345 -0.01510430097583067 0.044258236825638855 -0.005591115549303613
 -1.6891950065777999 0.2527532982032609 1.7709093945072425 -0.26750872218675725 -0.5590347966005251 0.012295347311397756
24.2988 0.3324023286785829 -0.012304827875893218 1.0 0.0 0.0442929132561005 -0.005791954358207317
 1.0 0.0 0.33394519303850023 -0.01539798839065689 0.044240300006291755 -0.00580863627311107
 -1.6878940755107121 0.26129980837313754 1.769580959084263 -0.27615978933657154 -0.5588971331798149 0.014683364731471794
24.8988 0.3324214426088902 -0.012596034845311991 1.0 0.0 0.044287039195256034 -0.005987842626343472
 1.0 0.0 0.33396884079478506 -0.015749570730261928 0.04419261902345495 -0.006014351490208045
 -1.6865499035169391 0.2698396244938892 1.7681605279508639 -0.2851128678199612 -0.5587002278257012 0.016874179551365154
25.4987 0.3324080698040211 -0.012944138795804567 1.0 0.0 0.04426498267274819 -0.006221037612914925
 1.0 0.0 0.33389503863418935 -0.016038128802114852 0.04417802303470306 -0.006193091372266837
 -1.6852110845366728 0.27807840720690724 1.7657083703459269 -0.29389445535826464 -0.5586029890649564 0.0189693126335962
26.0987 0.33238201553482044 -0.013349840785955995 1.0 0.0 0.044202116997710865 -0.006448391498713474
 1.0 0.0 0.33384809654173997 -0.016386303288327277 0.044163659742343216 -0.006434909335999498
 -1.683782023152175 0.2866044286286742 1.7642510525240813 -0.3025197905388535 -0.5583674523596072 0.021205651284631866
26.6987 0.3323502558609394 -0.013639073618398445 1.0 0.0 0.04421195453989122 -0.0066548610626062125
 1.0 0.0 0.33386363230943034 -0.01667913130692148 0.04416891270387411 -0.00667203496375346
 -1.6823613092606426 0.2948294847921696 1.7626972702764159 -0.3114455544073028 -0.5582010535487081 0.023248476285674446
27.2987 0.33233579082765347 -0.013987102450406562 1.0 0.0 0.044193573218289844 -0.006841526598622184
 1.0 0.0 0.33385596992231853 -0.01702925269141093 0.04414177363665623 -0.006849286109530031
 -1.6809004172866755 0.30304749985023827 1.7611542179010395 -0.32005596505826583 -0.558017763770073 0.025387555148566873
27.8986 0.33236092418437246 -0.014336839795081244 1.0 0.0 0.04416452787365047 -0.007026583643389661
 1.0 0.0 0.3339039198531944 -0.01726542228477241 0.04409784356612413 -0.0070001923414749765
 -1.679453681357915 0.3109651623146024 1.7596264406841318 -0.3283516243987449 -0.5578358526080828 0.027330846881712233
28.4986 0.332345728446339 -0.014684879416336406 1.0 0.0 0.044133448301524755 -0.007219220249905226
 1.0 0.0 0.33388257696915097 -0.017673349892959468 0.04406687978219764 -0.0071925382349585345
 -1.6779696505254196 0.31887591930969195 1.758000806662538 -0.33694682633000916 -0.5576520440476072 0.02937102350806929
29.0986 0.3323774879807666 -0.01509317341036532 1.0 0.0 0.04410750251200416 -0.007436472426732072
 1.0 0.0 0.333837070266184 -0.017963098732983983 0.04403847668647677 -0.007424834754702757
 -1.6754668306028855 0.32658827221675013 1.7563934684449194 -0.3452274380810795 -0.5574263112122908 0.03131068874716662
29.6985 0.3322815864016425 -0.01543751723587011 1.0 0.0 0.04404241068795111 -0.007639113874910466
 1.0 0.0 0.3337881213497914 -0.018311038904904327 0.04395772044533337 -0.0076007179430577386
 -1.6738508188595418 0.33477221539913044 1.7546854025728822 -0.3538066392786358 -0.5572707859388409 0.033302303075115475
30.2985 0.3322552493468922 -0.01578499862003302 1.0 0.0 0.0440212364955105 -0.007817597930715967
 1.0 0.0 0.33377874746603625 -0.018661129119214658 0.043970643180074306 -0.007816529813835828
 -1.67225466255783 0.34265630528796315 1.7529354313774377 -0.3623773908808284 -0.5569795672730891 0.03518790123474207
30.8985 0.33225133614109165 -0.01607542324355163 1.0 0.0 0.043969863744722976 -0.008046184329885565
 1.0 0.0 0.333732383717205 -0.0189506980988102 0.043905207491552314 -0.008010596427466458
 -1.6706213712178901 0.3505327859559742 1.7512729722708233 -0.37032820118607784 -0.5568348721994081 0.037033066070689874
31.4984 0.3322214606302224 -0.016480837257905726 1.0 0.0 0.04398779292862216 -0.008224145747046207
 1.0 0.0 0.33371235560695056 -0.01930017137903655 0.043914876105240475 -0.00817878699205326
 -1.6689509811095178 0.35840148249355525 1.7494423025617079 -0.37888207929062784 -0.5566042596904475 0.038872076834271296
32.0984 0.33223691373298214 -0.016772261421256946 1.0 0.0 0.043967177342616105 -0.008387187640857035
 1.0 0.0 0.3337019442476197 -0.019650211331141757 0.04386058531994602 -0.008358920707348262
 -1.6672435293263466 0.3662622201639537 1.7476374448790464 -0.3871218945715136 -0.5564352603634024 0.04081255431323802
32.6984 0.3321921901553702 -0.017060647695159584 1.0 0.0 0.04391352431234511 -0.00855978869301546
 1.0 0.0 0.33363475818793675 -0.019938430953236753 0.04382220228035265 -0.00855786698306624
 -1.6655643237723528 0.3738241342887662 1.7457937781652137 -0.3953531132034104 -0.5561597204740203 0.042549385701804665
33.2984 0.33218412844076145 -0.017409032484652837 1.0 0.0 0.04390670551982193 -0.008749520580902578
 1.0 0.0 0.33361723158806345 -0.02022957457576517 0.04380558380182591 -0.00874526887986914
 -1.6637175932243582 0.381959120843774 1.742937091214592 -0.4033500911967377 -0.5559097867867063 0.04433595252144186
33.8983 0.33210269749636284 -0.017811645506221815 1.0 0.0 0.043838715043671206 -0.008935024528214569
 1.0 0.0 0.33359586430487803 -0.020578926567763473 0.04378614252955908 -0.008892475604753583
 -1.6618991872044846 0.38979493527888937 1.7410170033982109 -0.4115589798295188 -0.5556132766510571 0.04606981377102107
34.4983 0.33214693851399163 -0.01810471860545343 1.0 0.0 0.04383527925726567 -0.009149682641356145
 1.0 0.0 0.33363401345325927 -0.020932012972248563 0.043717810889448074 -0.009125163616859432
 -1.659209997992129 0.39681000814364453 1.7390582535679475 -0.41975872914949564 -0.555335478539442 0.047754823916441064
35.0983 0.3321046025377336 -0.018509386085281385 1.0 0.0 0.04382101371781465 -0.009362417248932069
 1.0 0.0 0.33355829316482083 -0.021336416310417525 0.04373951249168193 -0.009313079350569313
 -1.6572510135976566 0.4049136672545642 1.7370608852209155 -0.42794915706837083 -0.5550731451199209 0.049489472688441616
35.6982 0.3320617735732229 -0.01891397714405011 1.0 0.0 0.04369658550313017 -0.00955935747671537
 1.0 0.0 0.33351580897158073 -0.02168440836250922 0.04363153170543157 -0.009529167909000224
 -1.6553965168258518 0.4124298389797191 1.7351010353444118 -0.43582725608519424 -0.5548491815917134 0.05112929109673335
36.2982 0.33199857111499514 -0.0191429171654041 1.0 0.0 0.043713016399110606 -0.009763006570267541
 1.0 0.0 0.3334169318818747 -0.02197018740196156 0.04357977734940632 -0.009717278743360798
 -1.6535811996983862 0.41964891993670805 1.7331054560899897 -0.44369638050260085 -0.5545912451736031 0.05286313015796887
36.8982 0.3319583770443444 -0.019489402507128915 1.0 0.0 0.04369577163119548 -0.00997556722970742
 1.0 0.0 0.3333776767577162 -0.022259807717671262 0.04360694924942613 -0.009915259812933508
 -1.6515852978892025 0.4274365494389013 1.7310741885508205 -0.451556368278776 -0.5543127574976016 0.05454529470701509
37.4981 0.3319112960501268 -0.019777298964344988 1.0 0.0 0.04366245120398864 -0.010120412781073227
 1.0 0.0 0.333304298153102 -0.022605524383833044 0.04357301213711962 -0.010107695746233448
 -1.6496286542053675 0.43492677915321326 1.7279606456207404 -0.45945185513387016 -0.5540987132846327 0.05618514116583761
38.0981 0.33191036665668205 -0.02012607527132045 1.0 0.0 0.04355588935155998 -0.010312230738044194
