!Created with skrf (http://scikit-rf.org).
# GHz S RI R 50.0 
!freq ReS11 ImS11 ReS12 ImS12 ReS13 ImS13
! ReS21 ImS21 ReS22 ImS22 ReS23 ImS23
! ReS31 ImS31 ReS32 ImS32 ReS33 ImS33
!
0.0 0.6666666666666663 0.0 0.6666666666666664 0.0 0.6666666666666663 0.0
 0.6666666666666666 0.0 -0.33333333333333365 0.0 0.6666666666666664 0.0
 0.6666666666666666 0.0 0.6666666666666665 0.0 -0.3333333333333337 0.0
0.004 0.6666564314812761 -0.0039492206165192886 0.6666564314812761 -0.003949220616519286 0.6666564314812761 -0.0039492206165192886
 0.6666564314812761 -0.0039492206165192886 -0.3331813139701837 0.0078957915520879 0.6665029500972174 -0.009870362883230597
 0.6666564314812763 -0.00394922061651929 0.6665029500972173 -0.009870362883230595 -0.3331813139701838 0.007895791552087904
0.008 0.6666257254441063 -0.007898389256824439 0.6666257254441063 -0.007898389256824432 0.6666257254441063 -0.007898389256824439
 0.6666257254441064 -0.007898389256824435 -0.3327258030808176 0.015775599705326642 0.6660123488204157 -0.01972448252193268
 0.6666257254441064 -0.007898389256824435 0.6660123488204157 -0.019724482521932686 -0.3327258030808178 0.01577559970532665
0.012 0.6665745471123619 -0.011847453918942447 0.6665745471123619 -0.011847453918942444 0.6665745471123619 -0.011847453918942447
 0.666574547112362 -0.011847453918942446 -0.3319684375257421 0.023623533963973008 0.6651965033912688 -0.02954620858745315
 0.6665745471123621 -0.011847453918942452 0.6651965033912689 -0.02954620858745315 -0.3319684375257421 0.023623533963973025
0.016 0.6665028940820574 -0.015796362549386243 0.6665028940820574 -0.015796362549386246 0.6665028940820574 -0.015796362549386243
 0.6665028940820578 -0.01579636254938625 -0.3309119296830581 0.03142388851533551 0.6640581323457551 -0.03931957545973962
 0.6665028940820575 -0.015796362549386246 0.6640581323457551 -0.039319575459739624 -0.33091192968305816 0.03142388851533551
0.02 0.6664107629890262 -0.0197450630174065 0.6664107629890264 -0.019745063017406497 0.6664107629890262 -0.0197450630174065
 0.6664107629890267 -0.01974506301740651 -0.3295600441297522 0.03916123178661493 0.6626010088826839 -0.04902889179698121
 0.6664107629890265 -0.0197450630174065 0.662601008882684 -0.04902889179698119 -0.32956004412975215 0.039161231786614924
0.024 0.6662981495103331 -0.023693503089254365 0.666298149510333 -0.023693503089254362 0.6662981495103331 -0.023693503089254365
 0.6662981495103332 -0.02369350308925437 -0.3279175655192953 0.046820492724395486 0.6608299287420855 -0.058658826827930034
 0.6662981495103331 -0.023693503089254365 0.6608299287420853 -0.05865882682793004 -0.3279175655192952 0.04682049272439547
0.028 0.6661650483660907 -0.027641630402458407 0.6661650483660908 -0.027641630402458414 0.6661650483660907 -0.027641630402458407
 0.6661650483660908 -0.02764163040245843 -0.325990258163197 0.05438704280929698 0.6587506697877819 -0.06819449237942504
 0.6661650483660909 -0.027641630402458414 0.6587506697877817 -0.06819449237942501 -0.32599025816319693 0.05438704280929699
0.032 0.6660114533216825 -0.03158939244011969 0.6660114533216825 -0.0315893924401197 0.6660114533216825 -0.03158939244011969
 0.6660114533216828 -0.03158939244011969 -0.3237848179468378 0.06184677290404624 0.6563699439244614 -0.07762151973738536
 0.6660114533216829 -0.031589392440119705 0.6563699439244614 -0.07762151973738535 -0.3237848179468378 0.061846772904046256
0.036 0.665837357190387 -0.035536736505228234 0.6658373571903868 -0.035536736505228234 0.665837357190387 -0.035536736505228234
 0.6658373571903871 -0.035536736505228234 -0.3213088173169393 0.06918616413535353 0.6536953420866116 -0.08692613054167055
 0.6658373571903872 -0.03553673650522825 0.6536953420866117 -0.08692613054167055 -0.32130881731693933 0.06918616413535354
0.04 0.6656427518364076 -0.039483609695004945 0.6656427518364075 -0.03948360969500494 0.6656427518364076 -0.039483609695004945
 0.6656427518364078 -0.03948360969500495 -0.3185706441671754 0.07639235212544682 0.6507352731258159 -0.09609520103066907
 0.6656427518364076 -0.03948360969500493 0.6507352731258159 -0.09609520103066907 -0.31857064416717534 0.07639235212544677
0.044 0.6654276281783099 -0.04342995887527234 0.6654276281783099 -0.043429958875272304 0.6654276281783099 -0.04342995887527234
 0.6654276281783101 -0.043429958875272345 -0.3155794355180297 0.0834531840145701 0.6474988974925139 -0.10511631907693277
 0.6654276281783101 -0.043429958875272345 0.6474988974925139 -0.10511631907693274 -0.31557943551802964 0.08345318401457011
0.048 0.6651919761928606 -0.04737573065485795 0.6651919761928606 -0.04737573065485798 0.6651919761928606 -0.04737573065485795
 0.665191976192861 -0.047375730654857985 -0.31234500693608525 0.09035726784767077 0.6439960566574136 -0.11397783358709135
 0.6651919761928609 -0.04737573065485799 0.6439960566574136 -0.11397783358709135 -0.3123450069360853 0.09035726784767076
0.052 0.6649357849192752 -0.05132087136003423 0.6649357849192752 -0.05132087136003423 0.6649357849192752 -0.05132087136003423
 0.6649357849192755 -0.05132087136003428 -0.3088777786661919 0.09709401403332757 0.6402371992459943 -0.12266889597410936
 0.6649357849192754 -0.05132087136003425 0.6402371992459942 -0.12266889597410936 -0.3088777786661917 0.09709401403332757
0.056 0.6646590424638709 -0.05526532700899825 0.6646590424638709 -0.055265327008998236 0.6646590424638709 -0.05526532700899825
 0.664659042463871 -0.05526532700899827 -0.30518869945769683 0.10365366871723893 0.6362333048672868 -0.13117949354421438
 0.6646590424638711 -0.05526532700899826 0.6362333048672869 -0.1311794935442144 -0.30518869945769694 0.1036536687172389
0.06 0.664361736005126 -0.0592090432863957 0.664361736005126 -0.05920904328639568 0.664361736005126 -0.0592090432863957
 0.6643617360051262 -0.059209043286395716 -0.30128916905410763 0.11002733904305169 0.6319958066062954 -0.13950047477128807
 0.664361736005126 -0.05920904328639569 0.6319958066062955 -0.13950047477128805 -0.30128916905410763 0.11002733904305162
0.064 0.6640438517991476 -0.06315196551789244 0.6640438517991476 -0.06315196551789244 0.6640438517991476 -0.06315196551789244
 0.6640438517991476 -0.0631519655178925 -0.2971909602855896 0.1162070103970316 0.6275365131194602 -0.14762356655522912
 0.6640438517991476 -0.0631519655178925 0.62753651311946 -0.14762356655522907 -0.29719096028558956 0.11620701039703159
0.068 0.663705375185546 -0.06709403864479821 0.663705375185546 -0.06709403864479821 0.663705375185546 -0.06709403864479821
 0.663705375185546 -0.06709403864479821 -0.2929061416574969 0.12218555584750843 0.622867531226359 -0.1555413836752332
 0.663705375185546 -0.0670940386447982 0.6228675312263589 -0.1555413836752332 -0.2929061416574968 0.12218555584750843
0.072 0.663346290593719 -0.07103520719874504 0.6633462905937191 -0.071035207198745 0.663346290593719 -0.07103520719874504
 0.6633462905937193 -0.07103520719874504 -0.28844700126789113 0.12795673809310013 0.6180011898305966 -0.16324743075200276
 0.6633462905937193 -0.07103520719874501 0.6180011898305965 -0.1632474307520028 -0.2884470012678912 0.12795673809310015
0.076 0.6629665815495446 -0.07497541527642616 0.6629665815495447 -0.07497541527642616 0.6629665815495446 -0.07497541527642616
 0.6629665815495448 -0.07497541527642618 -0.28382597281517447 0.1335152043238245 0.6129499659310027 -0.1707360971230052
 0.6629665815495448 -0.07497541527642615 0.6129499659310028 -0.1707360971230052 -0.2838259728151745 0.13351520432382452
0.08 0.6625662306824829 -0.0789146065143984 0.6625662306824829 -0.07891460651439841 0.6625662306824829 -0.0789146065143984
 0.662566230682483 -0.07891460651439841 -0.2790555643761209 0.13885647447525468 0.6077264134034259 -0.17800264511094563
 0.6625662306824831 -0.07891460651439842 0.607726413403426 -0.1780026451109456 -0.27905556437612095 0.1388564744752547
0.084 0.6621452197330898 -0.08285272406395178 0.6621452197330897 -0.08285272406395178 0.6621452197330898 -0.08285272406395178
 0.6621452197330902 -0.08285272406395185 -0.2741482905473577 0.1439769234172665 0.6023430951461608 -0.18504319222701218
 0.6621452197330899 -0.0828527240639518 0.6023430951461609 -0.18504319222701224 -0.2741482905473577 0.14397692341726648
0.088 0.6617035295609414 -0.08678971056605185 0.6617035295609414 -0.08678971056605186 0.6617035295609414 -0.08678971056605185
 0.6617035295609416 -0.08678971056605186 -0.2691166084522354 0.14887375766551897 0.596812519090953 -0.19185468789704457
 0.6617035295609415 -0.08678971056605184 0.5968125190909531 -0.19185468789704457 -0.26911660845223545 0.14887375766551897
0.092 0.6612411401529702 -0.09072550812635731 0.6612411401529702 -0.09072550812635732 0.6612411401529702 -0.09072550812635731
 0.6612411401529703 -0.09072550812635734 -0.26397285802248005 0.15354498723589344 0.5911470784889636 -0.19843488533086034
 0.6612411401529704 -0.09072550812635734 0.5911470784889635 -0.19843488533086032 -0.26397285802248 0.15354498723589344
0.096 0.6607580306322145 -0.09466005829031908 0.6607580306322146 -0.09466005829031912 0.6607580306322145 -0.09466005829031908
 0.6607580306322146 -0.09466005829031914 -0.2587292068721951 0.15798939328033706 0.5853589967892582 -0.20478230917319531
 0.6607580306322147 -0.09466005829031912 0.5853589967892582 -0.2047823091731953 -0.2587292068721952 0.15798939328033706
0.1 0.660254179266981 -0.09859330201836315 0.660254179266981 -0.0985933020183631 0.660254179266981 -0.09859330201836315
 0.6602541792669813 -0.09859330201836315 -0.2533975999926839 0.1622064921478768 0.5794602773382882 -0.21089621958003285
 0.6602541792669812 -0.09859330201836317 0.5794602773382881 -0.21089621958003293 -0.25339759999268385 0.16220649214787683
0.104 0.6597295634804226 -0.10252517966116316 0.6597295634804226 -0.10252517966116312 0.6597295634804226 -0.10252517966116316
 0.6597295634804227 -0.10252517966116316 -0.24798971441179865 0.16619649650817803 0.5734626580440608 -0.21677657335770606
 0.6597295634804227 -0.10252517966116312 0.5734626580440608 -0.21677657335770595 -0.24798971441179868 0.16619649650817808
0.108 0.6591841598605297 -0.10645563093500679 0.6591841598605297 -0.10645563093500676 0.6591841598605297 -0.10645563093500679
 0.6591841598605299 -0.10645563093500683 -0.24251691888250645 0.1699602741582897 0.5673775710696881 -0.22242398278542264
 0.6591841598605299 -0.10645563093500683 0.5673775710696882 -0.2224239827854227 -0.24251691888250645 0.1699602741582897
0.112 0.6586179441705402 -0.11038459489726034 0.6586179441705402 -0.11038459489726037 0.6586179441705402 -0.11038459489726034
 0.6586179441705403 -0.11038459489726035 -0.236990238593114 0.173499305107619 0.5612161075487442 -0.22783967271626737
 0.6586179441705404 -0.11038459489726037 0.5612161075487442 -0.22783967271626737 -0.23699023859311397 0.17349930510761896
0.116 0.6580308913597649 -0.11431200992193617 0.6580308913597649 -0.11431200992193617 0.6580308913597649 -0.11431200992193617
 0.658030891359765 -0.11431200992193623 -0.2314203248268916 0.1768156375032455 0.5549889872501729 -0.23302543651879878
 0.658030891359765 -0.11431200992193621 0.5549889872501729 -0.23302543651879873 -0.23142032482689157 0.17681563750324553
0.12 0.6574229755748294 -0.118237813675368 0.6574229755748292 -0.11823781367536798 0.6574229755748294 -0.118237813675368
 0.6574229755748295 -0.11823781367536801 -0.22581742944213354 0.17991184291892404 0.5487065330637695 -0.23798359138259806
 0.6574229755748295 -0.11823781367536804 0.5487065330637697 -0.23798359138259803 -0.22581742944213354 0.17991184291892395
0.124 0.6567941701713381 -0.12216194309199879 0.6567941701713381 -0.12216194309199882 0.6567941701713381 -0.12216194309199879
 0.6567941701713382 -0.12216194309199886 -0.22019138399522303 0.18279097148803383 0.5423786501288043 -0.24271693346803996
 0.6567941701713382 -0.12216194309199889 0.5423786501288044 -0.2427169334680399 -0.220191383995223 0.18279097148803386
0.128 0.6561444477259556 -0.1260843343502863 0.6561444477259555 -0.12608433435028635 0.6561444477259556 -0.1260843343502863
 0.6561444477259557 -0.12608433435028635 -0.21455158328898657 0.1854565073146765 0.5360148093880606 -0.2472286933344927
 0.6561444477259559 -0.12608433435028638 0.5360148093880607 -0.24722869333449268 -0.21455158328898657 0.18545650731467644
0.132 0.6554737800489079 -0.1300049228487304 0.6554737800489079 -0.13000492284873036 0.6554737800489079 -0.1300049228487304
 0.655473780048908 -0.13000492284873044 -0.20890697309634965 0.18791232454938697 0.5296240353172972 -0.2515224920334239
 0.655473780048908 -0.13000492284873041 0.529624035317297 -0.25152249203342386 -0.20890697309634965 0.18791232454938703
0.136 0.6547821381969073 -0.13392364318202904 0.6547821381969073 -0.133923643182029 0.6547821381969073 -0.13392364318202904
 0.6547821381969076 -0.1339236431820291 -0.2032660417846311 0.19016264446766526 0.5232148975554614 -0.2556022982046241
 0.6547821381969074 -0.13392364318202907 0.5232148975554614 -0.2556022982046241 -0.20326604178463112 0.1901626444676653
0.14 0.6540694924864977 -0.13784042911736644 0.6540694924864977 -0.13784042911736646 0.6540694924864977 -0.13784042911736644
 0.654069492486498 -0.1378404291173665 -0.1976368155482666 0.19221199384170795 0.5167955061434376 -0.2594723864659418
 0.6540694924864978 -0.13784042911736638 0.5167955061434377 -0.25947238646594173 -0.19763681554826654 0.192211993841708
0.144 0.6533358125078237 -0.14175521357083926 0.6533358125078237 -0.14175521357083926 0.6533358125078237 -0.14175521357083926
 0.653335812507824 -0.1417552135708393 -0.19202685694671368 0.19406516484922912 0.5103735100680766 -0.26313729734042063
 0.6533358125078238 -0.14175521357083926 0.5103735100680767 -0.2631372973404206 -0.19202685694671356 0.19406516484922903
0.148 0.6525810671388232 -0.14566792858402688 0.6525810671388234 -0.14566792858402688 0.6525810671388232 -0.14566792858402688
 0.6525810671388236 -0.14566792858402697 -0.18644326643911743 0.19572717671873824 0.5039560988030752 -0.26660179892022184
 0.6525810671388234 -0.14566792858402694 0.503956098803075 -0.26660179892022184 -0.18644326643911735 0.1957271767187382
0.152 0.651805224559846 -0.14957850530071015 0.6518052245598462 -0.14957850530071026 0.651805224559846 -0.14957850530071015
 0.6518052245598466 -0.14957850530071035 -0.18089268660731225 0.1972032392686885 0.49755000653827264 -0.26987085042474634
 0.6518052245598465 -0.14957850530071023 0.4975500065382726 -0.2698708504247461 -0.18089268660731225 0.1972032392686884
0.156 0.6510082522686967 -0.15348687394374533 0.6510082522686966 -0.15348687394374536 0.6510082522686967 -0.15348687394374533
 0.6510082522686966 -0.1534868739437454 -0.17538130876318042 0.19849871845890066 0.49116151879338155 -0.2729495677713764
 0.6510082522686966 -0.1534868739437454 0.4911615187933814 -0.27294956777137636 -0.17538130876318037 0.19849871845890057
0.16 0.6501901170961029 -0.1573929637920976 0.650190117096103 -0.15739296379209763 0.6501901170961029 -0.1573929637920976
 0.6501901170961031 -0.1573929637920977 -0.16991488164461516 0.19961910403690727 0.4847964811203843 -0.2758431912414845
 0.6501901170961031 -0.15739296379209775 0.4847964811203843 -0.27584319124148443 -0.1699148816446153 0.1996191040369074
0.164 0.6493507852216156 -0.1612967031580419 0.6493507852216157 -0.16129670315804193 0.6493507852216156 -0.1612967031580419
 0.6493507852216158 -0.16129670315804212 -0.16449872191563858 0.20056997932950912 0.4784603096101421 -0.27855705529201036
 0.6493507852216159 -0.16129670315804204 0.478460309610142 -0.2785570552920103 -0.16449872191563847 0.20056997932950907
0.168 0.6484902221899305 -0.16519801936453504 0.6484902221899305 -0.16519801936453507 0.6484902221899305 -0.16519801936453504
 0.6484902221899305 -0.16519801936453515 -0.15913772619999642 0.20135699320097786 0.4721580029325304 -0.28109656053405074
 0.6484902221899306 -0.16519801936453515 0.47215800293253024 -0.28109656053405074 -0.15913772619999625 0.20135699320097789
0.172 0.6476083929276428 -0.16909683872276582 0.6476083929276426 -0.16909683872276593 0.6476083929276428 -0.16909683872276582
 0.6476083929276428 -0.169096838722766 -0.15383638439320388 0.20198583417395552 0.46589415565505843 -0.28346714787451377
 0.6476083929276428 -0.16909683872276599 0.4658941556550583 -0.2834671478745137 -0.15383638439320382 0.2019858341739554
0.176 0.6467052617604301 -0.17299308650989131 0.64670526176043 -0.17299308650989123 0.6467052617604301 -0.17299308650989131
 0.64670526176043 -0.1729930865098913 -0.1485987940149902 0.2024622066871133 0.4596729726019181 -0.2856742747949138
 0.6467052617604301 -0.1729930865098913 0.4596729726019181 -0.2856742747949139 -0.14859879401499032 0.2024622066871135
0.18 0.6457807924306637 -0.1768866869469608 0.6457807924306637 -0.17688668694696083 0.6457807924306637 -0.1768866869469608
 0.6457807924306638 -0.1768866869469608 -0.14342867538195261 0.20279180944491434 0.4534982840332618 -0.28772339372265454
 0.6457807924306639 -0.1768866869469608 0.4534982840332617 -0.2877233937226544 -0.14342867538195253 0.20279180944491415
0.184 0.6448349481154527 -0.18077756317703977 0.6448349481154526 -0.18077756317703975 0.6448349481154527 -0.18077756317703977
 0.6448349481154527 -0.18077756317703972 -0.13832938739853493 0.20298031579918316 0.4473735614428096 -0.2896199324345118
 0.6448349481154527 -0.18077756317703972 0.44737356144280943 -0.2896199324345116 -0.13832938739853476 0.20298031579918294
0.188 0.643867691445116 -0.18466563724353535 0.643867691445116 -0.18466563724353546 0.643867691445116 -0.18466563724353535
 0.643867691445116 -0.1846656372435354 -0.13330394378284094 0.2030333560894346 0.441301933790293 -0.2913692764192753
 0.6438676914451161 -0.1846656372435354 0.44130193379029314 -0.2913692764192752 -0.13330394378284108 0.2030333560894345
0.192 0.6428789845220888 -0.18855083006873374 0.6428789845220887 -0.18855083006873377 0.6428789845220888 -0.18855083006873374
 0.6428789845220889 -0.18855083006873372 -0.12835502956199263 0.20295650185879166 0.43528620400342655 -0.2929767531163831
 0.6428789845220888 -0.1885508300687337 0.4352862040034267 -0.29297675311638316 -0.12835502956199277 0.20295650185879163
0.196 0.6418687889402579 -0.19243306143255226 0.641868788940258 -0.1924330614325523 0.6418687889402579 -0.19243306143255226
 0.641868788940258 -0.1924330614325523 -0.1234850176894678 0.20275525185461826 0.42932886560183847 -0.2944476179396864
 0.6418687889402581 -0.1924330614325523 0.4293288656018384 -0.2944476179396864 -0.12348501768946774 0.20275525185461832
0.2 0.6408370658047313 -0.196312249951518 0.6408370658047315 -0.19631224995151803 0.6408370658047313 -0.196312249951518
 0.6408370658047314 -0.19631224995151805 -0.11869598565394641 0.20243501971744446 0.42343211931247404 -0.2957870419899214
 0.6408370658047314 -0.19631224995151803 0.423432119312474 -0.29578704198992134 -0.1186959856539464 0.2024350197174444
0.204 0.6397837757520393 -0.2001883130579755 0.6397837757520392 -0.20018831305797538 0.6397837757520393 -0.2001883130579755
 0.6397837757520394 -0.20018831305797555 -0.11398973196545872 0.20200112325811628 0.4175978895622562 -0.29700010135583355
 0.6397837757520394 -0.20018831305797558 0.41759788956225613 -0.29700010135583377 -0.11398973196545878 0.20200112325811645
0.208 0.638708878970766 -0.20406116697953258 0.6387088789707657 -0.20406116697953236 0.638708878970766 -0.20406116697953258
 0.6387088789707659 -0.20406116697953247 -0.10936779241998076 0.20145877522114689 0.41182784074913314 -0.29809176790192915
 0.6387088789707659 -0.20406116697953247 0.4118278407491332 -0.2980917679019292 -0.10936779241998083 0.20145877522114694
0.212 0.6376123352226173 -0.20793072671875232 0.6376123352226174 -0.20793072671875226 0.6376123352226173 -0.20793072671875232
 0.6376123352226174 -0.2079307267187523 -0.10483145605796634 0.20081307543171645 0.4061233932069977 -0.29906690144031406
 0.6376123352226175 -0.20793072671875223 0.40612339320699775 -0.2990669014403142 -0.10483145605796623 0.20081307543171648
0.216 0.6364941038639189 -0.2117969060330971 0.636494103863919 -0.2117969060330971 0.6364941038639189 -0.2117969060330971
