!Created with skrf (http://scikit-rf.org).
# GHz S RI R 50.0 
!freq ReS11 ImS11 ReS21 ImS21 ReS12 ImS12 ReS22 ImS22
0.0 -0.33333333333333365 0.0 0.6666666666666665 0.0 0.6666666666666664 0.0 -0.3333333333333337 0.0
0.004 -0.3331813139701837 0.0078957915520879 0.6665029500972173 -0.009870362883230595 0.6665029500972174 -0.009870362883230597 -0.3331813139701838 0.007895791552087904
0.008 -0.3327258030808176 0.015775599705326642 0.6660123488204157 -0.019724482521932686 0.6660123488204157 -0.01972448252193268 -0.3327258030808178 0.01577559970532665
0.012 -0.3319684375257421 0.023623533963973008 0.6651965033912689 -0.02954620858745315 0.6651965033912688 -0.02954620858745315 -0.3319684375257421 0.023623533963973025
0.016 -0.3309119296830581 0.03142388851533551 0.6640581323457551 -0.039319575459739624 0.6640581323457551 -0.03931957545973962 -0.33091192968305816 0.03142388851533551
0.02 -0.3295600441297522 0.03916123178661493 0.662601008882684 -0.04902889179698119 0.6626010088826839 -0.04902889179698121 -0.32956004412975215 0.039161231786614924
0.024 -0.3279175655192953 0.046820492724395486 0.6608299287420853 -0.05865882682793004 0.6608299287420855 -0.058658826827930034 -0.3279175655192952 0.04682049272439547
0.028 -0.325990258163197 0.05438704280929698 0.6587506697877817 -0.06819449237942501 0.6587506697877819 -0.06819449237942504 -0.32599025816319693 0.05438704280929699
0.032 -0.3237848179468378 0.06184677290404624 0.6563699439244614 -0.07762151973738535 0.6563699439244614 -0.07762151973738536 -0.3237848179468378 0.061846772904046256
0.036 -0.3213088173169393 0.06918616413535353 0.6536953420866117 -0.08692613054167055 0.6536953420866116 -0.08692613054167055 -0.32130881731693933 0.06918616413535354
0.04 -0.3185706441671754 0.07639235212544682 0.6507352731258159 -0.09609520103066907 0.6507352731258159 -0.09609520103066907 -0.31857064416717534 0.07639235212544677
0.044 -0.3155794355180297 0.0834531840145701 0.6474988974925139 -0.10511631907693274 0.6474988974925139 -0.10511631907693277 -0.31557943551802964 0.08345318401457011
0.048 -0.31234500693608525 0.09035726784767077 0.6439960566574136 -0.11397783358709135 0.6439960566574136 -0.11397783358709135 -0.3123450069360853 0.09035726784767076
0.052 -0.3088777786661919 0.09709401403332757 0.6402371992459942 -0.12266889597410936 0.6402371992459943 -0.12266889597410936 -0.3088777786661917 0.09709401403332757
0.056 -0.30518869945769683 0.10365366871723893 0.6362333048672869 -0.1311794935442144 0.6362333048672868 -0.13117949354421438 -0.30518869945769694 0.1036536687172389
0.06 -0.30128916905410763 0.11002733904305169 0.6319958066062955 -0.13950047477128805 0.6319958066062954 -0.13950047477128807 -0.30128916905410763 0.11002733904305162
0.064 -0.2971909602855896 0.1162070103970316 0.62753651311946 -0.14762356655522907 0.6275365131194602 -0.14762356655522912 -0.29719096028558956 0.11620701039703159
0.068 -0.2929061416574969 0.12218555584750843 0.6228675312263589 -0.1555413836752332 0.622867531226359 -0.1555413836752332 -0.2929061416574968 0.12218555584750843
0.072 -0.28844700126789113 0.12795673809310013 0.6180011898305965 -0.1632474307520028 0.6180011898305966 -0.16324743075200276 -0.2884470012678912 0.12795673809310015
0.076 -0.28382597281517447 0.1335152043238245 0.6129499659310028 -0.1707360971230052 0.6129499659310027 -0.1707360971230052 -0.2838259728151745 0.13351520432382452
0.08 -0.2790555643761209 0.13885647447525468 0.607726413403426 -0.1780026451109456 0.6077264134034259 -0.17800264511094563 -0.27905556437612095 0.1388564744752547
0.084 -0.2741482905473577 0.1439769234172665 0.6023430951461609 -0.18504319222701224 0.6023430951461608 -0.18504319222701218 -0.2741482905473577 0.14397692341726648
0.088 -0.2691166084522354 0.14887375766551897 0.5968125190909531 -0.19185468789704457 0.596812519090953 -0.19185468789704457 -0.26911660845223545 0.14887375766551897
0.092 -0.26397285802248005 0.15354498723589344 0.5911470784889635 -0.19843488533086032 0.5911470784889636 -0.19843488533086034 -0.26397285802248 0.15354498723589344
0.096 -0.2587292068721951 0.15798939328033706 0.5853589967892582 -0.2047823091731953 0.5853589967892582 -0.20478230917319531 -0.2587292068721952 0.15798939328033706
0.1 -0.2533975999926839 0.1622064921478768 0.5794602773382881 -0.21089621958003293 0.5794602773382882 -0.21089621958003285 -0.25339759999268385 0.16220649214787683
0.104 -0.24798971441179865 0.16619649650817803 0.5734626580440608 -0.21677657335770595 0.5734626580440608 -0.21677657335770606 -0.24798971441179868 0.16619649650817808
0.108 -0.24251691888250645 0.1699602741582897 0.5673775710696882 -0.2224239827854227 0.5673775710696881 -0.22242398278542264 -0.24251691888250645 0.1699602741582897
0.112 -0.236990238593114 0.173499305107619 0.5612161075487442 -0.22783967271626737 0.5612161075487442 -0.22783967271626737 -0.23699023859311397 0.17349930510761896
0.116 -0.2314203248268916 0.1768156375032455 0.5549889872501729 -0.23302543651879873 0.5549889872501729 -0.23302543651879878 -0.23142032482689157 0.17681563750324553
0.12 -0.22581742944213354 0.17991184291892404 0.5487065330637697 -0.23798359138259803 0.5487065330637695 -0.23798359138259806 -0.22581742944213354 0.17991184291892395
0.124 -0.22019138399522303 0.18279097148803383 0.5423786501288044 -0.2427169334680399 0.5423786501288043 -0.24271693346803996 -0.220191383995223 0.18279097148803386
0.128 -0.21455158328898657 0.1854565073146765 0.5360148093880607 -0.24722869333449268 0.5360148093880606 -0.2472286933344927 -0.21455158328898657 0.18545650731467644
0.132 -0.20890697309634965 0.18791232454938697 0.529624035317297 -0.25152249203342386 0.5296240353172972 -0.2515224920334239 -0.20890697309634965 0.18791232454938703
0.136 -0.2032660417846311 0.19016264446766526 0.5232148975554614 -0.2556022982046241 0.5232148975554614 -0.2556022982046241 -0.20326604178463112 0.1901626444676653
0.14 -0.1976368155482666 0.19221199384170795 0.5167955061434377 -0.25947238646594173 0.5167955061434376 -0.2594723864659418 -0.19763681554826654 0.192211993841708
0.144 -0.19202685694671368 0.19406516484922912 0.5103735100680767 -0.2631372973404206 0.5103735100680766 -0.26313729734042063 -0.19202685694671356 0.19406516484922903
0.148 -0.18644326643911743 0.19572717671873824 0.503956098803075 -0.26660179892022184 0.5039560988030752 -0.26660179892022184 -0.18644326643911735 0.1957271767187382
0.152 -0.18089268660731225 0.1972032392686885 0.4975500065382726 -0.2698708504247461 0.49755000653827264 -0.26987085042474634 -0.18089268660731225 0.1972032392686884
0.156 -0.17538130876318042 0.19849871845890066 0.4911615187933814 -0.27294956777137636 0.49116151879338155 -0.2729495677713764 -0.17538130876318037 0.19849871845890057
0.16 -0.16991488164461516 0.19961910403690727 0.4847964811203843 -0.27584319124148443 0.4847964811203843 -0.2758431912414845 -0.1699148816446153 0.1996191040369074
0.164 -0.16449872191563858 0.20056997932950912 0.478460309610142 -0.2785570552920103 0.4784603096101421 -0.27855705529201036 -0.16449872191563847 0.20056997932950907
0.168 -0.15913772619999642 0.20135699320097786 0.47215800293253024 -0.28109656053405074 0.4721580029325304 -0.28109656053405074 -0.15913772619999625 0.20135699320097789
0.172 -0.15383638439320388 0.20198583417395552 0.4658941556550583 -0.2834671478745137 0.46589415565505843 -0.28346714787451377 -0.15383638439320382 0.2019858341739554
0.176 -0.1485987940149902 0.2024622066871133 0.4596729726019181 -0.2856742747949139 0.4596729726019181 -0.2856742747949138 -0.14859879401499032 0.2024622066871135
0.18 -0.14342867538195261 0.20279180944491434 0.4534982840332617 -0.2877233937226544 0.4534982840332618 -0.28772339372265454 -0.14342867538195253 0.20279180944491415
0.184 -0.13832938739853493 0.20298031579918316 0.44737356144280943 -0.2896199324345116 0.4473735614428096 -0.2896199324345118 -0.13832938739853476 0.20298031579918294
0.188 -0.13330394378284094 0.2030333560894346 0.44130193379029314 -0.2913692764192752 0.441301933790293 -0.2913692764192753 -0.13330394378284108 0.2030333560894345
0.192 -0.12835502956199263 0.20295650185879166 0.4352862040034267 -0.29297675311638316 0.43528620400342655 -0.2929767531163831 -0.12835502956199277 0.20295650185879163
0.196 -0.1234850176894678 0.20275525185461826 0.4293288656018384 -0.2944476179396864 0.42932886560183847 -0.2944476179396864 -0.12348501768946774 0.20275525185461832
0.2 -0.11869598565394641 0.20243501971744446 0.423432119312474 -0.29578704198992134 0.42343211931247404 -0.2957870419899214 -0.1186959856539464 0.2024350197174444
0.204 -0.11398973196545872 0.20200112325811628 0.41759788956225613 -0.29700010135583377 0.4175978895622562 -0.29700010135583355 -0.11398973196545878 0.20200112325811645
0.208 -0.10936779241998076 0.20145877522114689 0.4118278407491332 -0.2980917679019292 0.41182784074913314 -0.29809176790192915 -0.10936779241998083 0.20145877522114694
0.212 -0.10483145605796634 0.20081307543171645 0.40612339320699775 -0.2990669014403142 0.4061233932069977 -0.29906690144031406 -0.10483145605796623 0.20081307543171648
0.216 -0.10038178074560763 0.20006900422449134 0.4004857387932501 -0.2999302431847919 0.4004857387932501 -0.2999302431847919 -0.10038178074560769 0.2000690042244914
0.22 -0.09601960831983206 0.19923141705416839 0.3949158560400069 -0.3006864103871304 0.3949158560400069 -0.30068641038713034 -0.09601960831983207 0.1992314170541684
0.224 -0.09174557924919416 0.1983050401902425 0.3894145248210979 -0.30133989205800676 0.38941452482109795 -0.30133989205800665 -0.09174557924919419 0.1983050401902426
0.228 -0.08756014677291708 0.19729446740177303 0.38398234049709445 -0.30189504567840225 0.38398234049709445 -0.30189504567840203 -0.08756014677291707 0.1972944674017732
0.232 -0.0834635904893956 0.19620415754172205 0.37861972750966955 -0.3023560948110301 0.37861972750966955 -0.3023560948110299 -0.08346359048939567 0.19620415754172216
0.236 -0.0794560293735645 0.1950384329446494 0.3733269524046772 -0.30272712752558456 0.3733269524046773 -0.30272712752558456 -0.07945602937356461 0.1950384329446493
0.24 -0.07553743420967336 0.19380147855603444 0.36810413627048233 -0.3030120955560833 0.3681041362704822 -0.3030120955560833 -0.07553743420967339 0.19380147855603433
0.244 -0.07170763943228815 0.19249734171617158 0.3629512665843467 -0.3032148141132543 0.36295126658434673 -0.3032148141132542 -0.07170763943228814 0.1924973417161717
0.248 -0.06796635437378899 0.191129932526354 0.3578682084651265 -0.30333896227968443 0.3578682084651267 -0.3033389622796847 -0.0679663543737889 0.19112993252635377
0.252 -0.06431317392132987 0.1897030247298547 0.35285471533523255 -0.30338808392024735 0.35285471533523255 -0.30338808392024746 -0.0643131739213299 0.18970302472985445
0.256 -0.06074758859022877 0.1882202570449787 0.3479104389988092 -0.303365589045076 0.3479104389988091 -0.3033655890450758 -0.06074758859022875 0.18822025704497883
0.26 -0.05726899402412688 0.18668513489212352 0.3430349391464557 -0.3032747555670283 0.34303493914645555 -0.3032747555670285 -0.05726899402412679 0.18668513489212332
0.264 -0.05387669993505355 0.1851010324613332 0.338227692299613 -0.3031187314001365 0.3382276922996129 -0.3031187314001363 -0.05387669993505372 0.18510103246133333
0.268 -0.05056993849881595 0.1834711950712244 0.3334881002100161 -0.3029005368499032 0.3334881002100162 -0.30290053684990303 -0.05056993849881587 0.18347119507122445
0.272 -0.04734787222295102 0.1817987417743532 0.3288154977314437 -0.3026230672505377 0.32881549773144375 -0.3026230672505378 -0.047347872222950955 0.18179874177435312
0.276 -0.04420960130590008 0.18008666816810712 0.32420916018239865 -0.3022890958082007 0.32420916018239854 -0.3022890958082007 -0.044209601305900174 0.18008666816810717
0.28 -0.04115417050711042 0.1783378493739946 0.3196683102194174 -0.3019012766131351 0.31966831021941755 -0.3019012766131352 -0.04115417050711042 0.17833784937399452
0.284 -0.038180575548512494 0.17655504315176937 0.31519212424144105 -0.30146214778712643 0.31519212424144105 -0.30146214778712643 -0.038180575548512466 0.17655504315176954
0.288 -0.03528776906828643 0.17474089311818977 0.3107797383461387 -0.30097413473608325 0.3107797383461387 -0.3009741347360834 -0.03528776906828649 0.17474089311818963
0.292 -0.03247466614805585 0.172897932043324 0.3064302538593149 -0.3004395534806606 0.3064302538593149 -0.3004395534806607 -0.03247466614805588 0.17289793204332402
0.296 -0.02974014943467619 0.17102858520023684 0.3021427424585461 -0.29986061404074593 0.30214274245854617 -0.29986061404074577 -0.02974014943467622 0.17102858520023695
0.3 -0.027083073877637465 0.16913517374656994 0.29791625091205304 -0.29923942385233465 0.2979162509120531 -0.2992394238523345 -0.02708307387763746 0.16913517374657017
0.304 -0.024502271102812626 0.1672199181190248 0.29374980545352297 -0.2985779911977902 0.293749805453523 -0.2985779911977904 -0.02450227110281265 0.16721991811902454
0.308 -0.02199655344287639 0.1652849414240348 0.2896424158131899 -0.2978782286327854 0.2896424158131899 -0.2978782286327852 -0.021996553442876404 0.16528494142403485
0.312 -0.01956471764421203 0.16333227281001658 0.28559307892497626 -0.2971419563952955 0.28559307892497626 -0.2971419563952955 -0.019564717644212117 0.16333227281001636
0.316 -0.017205548269544957 0.16136385080849028 0.2816007823289142 -0.2963709057839532 0.2816007823289143 -0.29637090578395314 -0.017205548269544995 0.1613638508084903
0.32 -0.014917820814896617 0.15938152663311766 0.2776645072874295 -0.2955667224947899 0.2776645072874293 -0.29556672249478994 -0.014917820814896697 0.15938152663311758
0.324 -0.01270030455876907 0.15738706742727337 0.27378323163337276 -0.29473096990699127 0.2737832316333728 -0.2947309699069913 -0.012700304558768973 0.1573870674272732
0.328 -0.010551765160744955 0.1553821594522083 0.2699559323669778 -0.2938651323097101 0.2699559323669779 -0.2938651323097101 -0.01055176516074497 0.15538215945220832
0.332 -0.008470967025954092 0.15336841120914776 0.2661815880181682 -0.2929706180632851 0.2661815880181681 -0.29297061806328495 -0.008470967025954226 0.15336841120914782
0.336 -0.006456675451097363 0.1513473564898316 0.2624591807898963 -0.29204876268935875 0.2624591807898963 -0.29204876268935887 -0.006456675451097421 0.15134735648983139
0.34 -0.0045076585669674134 0.1493204573510415 0.25878769849743255 -0.2911008318854461 0.2587876984974324 -0.291100831885446 -0.0045076585669674655 0.14932045735104157
0.344 -0.0026226890916514487 0.14728910700959816 0.25516613631777324 -0.2901280244604138 0.25516613631777313 -0.2901280244604137 -0.002622689091651656 0.14728910700959824
0.348 -0.0008005459078573111 0.14525463265512345 0.25159349836259043 -0.289131475188181 0.2515934983625903 -0.2891314751881811 -0.000800545907857439 0.1452546326551234
0.352 0.0009599845229306245 0.14321829817861467 0.24806879908741583 -0.2881122575776637 0.24806879908741603 -0.2881122575776636 0.0009599845229307927 0.14321829817861478
0.356 0.0026601068974660106 0.14118130681551444 0.2445910645490404 -0.2870713865576463 0.2445910645490405 -0.2870713865576464 0.0026601068974660396 0.14118130681551436
0.36 0.004301015947622193 0.13914480370252935 0.24115933352240992 -0.2860098210758313 0.24115933352240987 -0.2860098210758313 0.0043010159476221275 0.13914480370252938
0.364 0.005883895446511044 0.1371098783479608 0.23777265848763934 -0.2849284666118114 0.2377726584876395 -0.2849284666118114 0.0058838954465111944 0.13710987834796087
0.368 0.0074099173338509836 0.13507756701573176 0.23443010649711035 -0.2838281776041497 0.2344301064971105 -0.28382817760414947 0.007409917333850939 0.13507756701573181
0.372 0.008880240951215104 0.13304885502368136 0.23113075993200075 -0.2827097597921238 0.23113075993200075 -0.2827097597921239 0.008880240951215103 0.13304885502368122
0.376 0.01029601237839249 0.13102467895701572 0.22787371715700577 -0.28157397247301946 0.22787371715700586 -0.28157397247301946 0.010296012378392479 0.13102467895701564
0.38 0.01165836386265252 0.12900592879808537 0.2246580930814333 -0.28042153067612563 0.22465809308143336 -0.28042153067612563 0.01165836386265257 0.12900592879808537
0.384 0.012968413333248312 0.12699344997388815 0.2214830196343257 -0.2792531072548274 0.22148301963432573 -0.27925310725482727 0.012968413333248299 0.12699344997388817
0.388 0.014227263994007493 0.12498804532289808 0.21834764616074318 -0.27806933489838176 0.2183476461607432 -0.27806933489838176 0.014227263994007554 0.12498804532289808
0.392 0.015436003987342439 0.12299047698297734 0.21525113974585527 -0.2768708080651251 0.21525113974585527 -0.27687080806512515 0.015436003987342507 0.12299047698297726
0.396 0.016595706123473906 0.12100146820226548 0.21219268547303505 -0.27565808483898974 0.21219268547303513 -0.2756580848389898 0.016595706123473997 0.1210014682022655
0.4 0.017707427669096262 0.11902170507504052 0.20917148662170637 -0.2744316887113156 0.2091714866217063 -0.2744316887113159 0.017707427669096124 0.11902170507504031
0.404 0.018772210190120035 0.11705183820462772 0.2061867648102933 -0.2731921102900223 0.20618676481029333 -0.27319211029002227 0.018772210190120067 0.11705183820462772
0.408 0.019791079443518683 0.11509248429549983 0.20323776008923222 -0.2719398089382599 0.20323776008923222 -0.27193980893825986 0.019791079443518596 0.11509248429549984
0.412 0.02076504531365747 0.11314422767673862 0.2003237309886426 -0.27067521434471076 0.20032373098864242 -0.27067521434471065 0.020765045313657443 0.1131442276767387
0.416 0.021695101788839564 0.11120762175906986 0.19744395452491684 -0.26939872802772724 0.19744395452491675 -0.2693987280277273 0.02169510178883955 0.11120762175906981
0.42 0.02258222697410404 0.109283190427684 0.19459772617016896 -0.26811072477550707 0.19459772617016896 -0.2681107247755071 0.022582226974103985 0.10928319042768392
0.424 0.02342738313662568 0.10737142937305943 0.19178435978818154 -0.2668115540245066 0.19178435978818156 -0.2668115540245065 0.02342738313662564 0.10737142937305946
0.428 0.024231516780335367 0.10547280736199093 0.18900318754021472 -0.26550154117827834 0.1890031875402147 -0.26550154117827846 0.02423151678033528 0.10547280736199086
0.432 0.0249955587466442 0.10358776745100685 0.18625355976377828 -0.2641809888689012 0.18625355976377833 -0.2641809888689012 0.024995558746644116 0.10358776745100685
0.436 0.025720424338400105 0.10171672814433205 0.18353484482722413 -0.2628501781631392 0.18353484482722424 -0.26285017816313927 0.025720424338400112 0.101716728144332
0.44 0.026407013464428634 0.09986008449851534 0.1808464289627913 -0.2615093697154325 0.18084642896279124 -0.2615093697154327 0.026407013464428607 0.09986008449851524
0.444 0.027056210802223816 0.09801820917580543 0.17818771608052364 -0.26015880486978493 0.17818771608052375 -0.26015880486978493 0.027056210802223746 0.09801820917580539
0.448 0.02766888597655207 0.09619145344830832 0.17555812756528205 -0.25879870671256183 0.17555812756528202 -0.25879870671256183 0.02766888597655204 0.09619145344830829
0.452 0.02824589375191463 0.09438014815491755 0.17295710205889286 -0.2574292810781724 0.17295710205889286 -0.2574292810781724 0.028245893751914466 0.09438014815491742
0.456 0.028788074236982982 0.09258460461295562 0.17038409522930273 -0.25605071750954844 0.1703840952293028 -0.2560507175095485 0.028788074236983038 0.09258460461295558
0.46 0.02929625309928305 0.09080511548640825 0.16783857952845307 -0.25466319017528793 0.1678385795284531 -0.2546631901752878 0.029296253099283135 0.09080511548640842
0.464 0.02977124178854609 0.0890419556125845 0.1653200439404389 -0.25326685874526944 0.16532004394043903 -0.2532668587452694 0.0297712417885461 0.0890419556125846
0.468 0.030213837767284854 0.08729538278897439 0.16282799372138662 -0.25186186922649234 0.16282799372138662 -0.25186186922649223 0.030213837767284778 0.0872953827889744
0.472 0.03062482474727679 0.08556563852202417 0.16036195013235127 -0.25044835476083294 0.16036195013235155 -0.2504483547608329 0.030624824747276836 0.08556563852202419
