!Created with skrf (http://scikit-rf.org).
# GHz S RI R 50.0 
!freq ReS11 ImS11 ReS21 ImS21 ReS12 ImS12 ReS22 ImS22
0.0 -0.3333333333333335 0.0 0.6666666666666666 0.0 0.6666666666666664 0.0 -0.33333333333333365 0.0
0.004 -0.3333216361270342 0.0019745713311426984 0.6666564314812761 -0.0039492206165192886 0.6666564314812761 -0.003949220616519286 -0.3331813139701837 0.0078957915520879
0.008 -0.3332865457395987 0.00394888281660605 0.6666257254441064 -0.007898389256824435 0.6666257254441063 -0.007898389256824432 -0.3327258030808176 0.015775599705326642
0.012 -0.3332280658655272 0.005922674623480142 0.666574547112362 -0.011847453918942446 0.6665745471123619 -0.011847453918942444 -0.3319684375257421 0.023623533963973008
0.016 -0.3331462026626976 0.007895686944404144 0.6665028940820578 -0.01579636254938625 0.6665028940820574 -0.015796362549386246 -0.3309119296830581 0.03142388851533551
0.02 -0.33304096475293243 0.009867660010366305 0.6664107629890267 -0.01974506301740651 0.6664107629890264 -0.019745063017406497 -0.3295600441297522 0.03916123178661493
0.024 -0.3329123632227907 0.011838334103534597 0.6662981495103332 -0.02369350308925437 0.666298149510333 -0.023693503089254362 -0.3279175655192953 0.046820492724395486
0.028 -0.3327604116245854 0.013807449570128071 0.6661650483660908 -0.02764163040245843 0.6661650483660908 -0.027641630402458414 -0.325990258163197 0.05438704280929698
0.032 -0.3325851259776242 0.015774746833339157 0.6660114533216828 -0.03158939244011969 0.6660114533216825 -0.0315893924401197 -0.3237848179468378 0.06184677290404624
0.036 -0.33238652476967295 0.01773996640631706 0.6658373571903871 -0.035536736505228234 0.6658373571903868 -0.035536736505228234 -0.3213088173169393 0.06918616413535353
0.04 -0.33216462895864096 0.0197028489052223 0.6656427518364078 -0.03948360969500495 0.6656427518364075 -0.03948360969500494 -0.3185706441671754 0.07639235212544682
0.044 -0.33191946197448485 0.021663135062362723 0.6654276281783101 -0.043429958875272345 0.6654276281783099 -0.043429958875272304 -0.3155794355180297 0.0834531840145701
0.048 -0.33165104972132897 0.023620565739420656 0.665191976192861 -0.047375730654857985 0.6651919761928606 -0.04737573065485798 -0.31234500693608525 0.09035726784767077
0.052 -0.33135942057980305 0.025574881940781835 0.6649357849192755 -0.05132087136003428 0.6649357849192752 -0.05132087136003423 -0.3088777786661919 0.09709401403332757
0.056 -0.3310446054095906 0.027525824826975572 0.664659042463871 -0.05526532700899827 0.6646590424638709 -0.055265327008998236 -0.30518869945769683 0.10365366871723893
0.06 -0.33070663755218815 0.029473135728236486 0.6643617360051262 -0.059209043286395716 0.664361736005126 -0.05920904328639568 -0.30128916905410763 0.11002733904305169
0.064 -0.330345552833871 0.031416556158197606 0.6640438517991476 -0.0631519655178925 0.6640438517991476 -0.06315196551789244 -0.2971909602855896 0.1162070103970316
0.068 -0.3299613895688627 0.033355827827724865 0.663705375185546 -0.06709403864479821 0.663705375185546 -0.06709403864479821 -0.2929061416574969 0.12218555584750843
0.072 -0.32955418856270596 0.03529069265890273 0.6633462905937193 -0.07103520719874504 0.6633462905937191 -0.071035207198745 -0.28844700126789113 0.12795673809310013
0.076 -0.32912399311582907 0.037220892799180755 0.6629665815495448 -0.07497541527642618 0.6629665815495447 -0.07497541527642616 -0.28382597281517447 0.1335152043238245
0.08 -0.3286708490273056 0.03914617063569101 0.662566230682483 -0.07891460651439841 0.6625662306824829 -0.07891460651439841 -0.2790555643761209 0.13885647447525468
0.084 -0.32819480459880374 0.04106626880974584 0.6621452197330902 -0.08285272406395185 0.6621452197330897 -0.08285272406395178 -0.2741482905473577 0.1439769234172665
0.088 -0.3276959106387183 0.042980930231525764 0.6617035295609416 -0.08678971056605186 0.6617035295609414 -0.08678971056605186 -0.2691166084522354 0.14887375766551897
0.092 -0.32717422046648403 0.044889898094967025 0.6612411401529703 -0.09072550812635734 0.6612411401529702 -0.09072550812635732 -0.26397285802248005 0.15354498723589344
0.096 -0.3266297899170636 0.046792915892858375 0.6607580306322146 -0.09466005829031914 0.6607580306322146 -0.09466005829031912 -0.2587292068721951 0.15798939328033706
0.1 -0.32606267734560473 0.048689727432156236 0.6602541792669813 -0.09859330201836315 0.660254179266981 -0.0985933020183631 -0.2533975999926839 0.1622064921478768
0.104 -0.3254729436322628 0.05058007684952808 0.6597295634804227 -0.10252517966116316 0.6597295634804226 -0.10252517966116312 -0.24798971441179865 0.16619649650817803
0.108 -0.3248606521871823 0.05246370862713305 0.6591841598605299 -0.10645563093500683 0.6591841598605297 -0.10645563093500676 -0.24251691888250645 0.1699602741582897
0.112 -0.3242258689556308 0.0543403676086486 0.6586179441705403 -0.11038459489726035 0.6586179441705402 -0.11038459489726037 -0.236990238593114 0.173499305107619
0.116 -0.32356866242328186 0.05620979901555342 0.658030891359765 -0.11431200992193623 0.6580308913597649 -0.11431200992193617 -0.2314203248268916 0.1768156375032455
0.12 -0.32288910362163664 0.058071748463674175 0.6574229755748295 -0.11823781367536801 0.6574229755748292 -0.11823781367536798 -0.22581742944213354 0.17991184291892404
0.124 -0.32218726613358184 0.05992596198000623 0.6567941701713382 -0.12216194309199886 0.6567941701713381 -0.12216194309199882 -0.22019138399522303 0.18279097148803383
0.128 -0.3214632260990747 0.06177218601981643 0.6561444477259557 -0.12608433435028635 0.6561444477259555 -0.12608433435028635 -0.21455158328898657 0.1854565073146765
0.132 -0.3207170622209481 0.06361016748403699 0.655473780048908 -0.13000492284873044 0.6554737800489079 -0.13000492284873036 -0.20890697309634965 0.18791232454938697
0.136 -0.3199488557708307 0.065439653736959 0.6547821381969076 -0.1339236431820291 0.6547821381969073 -0.133923643182029 -0.2032660417846311 0.19016264446766526
0.14 -0.3191586905951716 0.06726039262423393 0.654069492486498 -0.1378404291173665 0.6540694924864977 -0.13784042911736646 -0.1976368155482666 0.19221199384170795
0.144 -0.3183466531213636 0.06907213249119176 0.653335812507824 -0.1417552135708393 0.6533358125078237 -0.14175521357083926 -0.19202685694671368 0.19406516484922912
0.148 -0.3175128323639583 0.07087462220148377 0.6525810671388236 -0.14566792858402697 0.6525810671388234 -0.14566792858402688 -0.18644326643911743 0.19572717671873824
0.152 -0.3166573199309612 0.0726676111560581 0.6518052245598466 -0.14957850530071035 0.6518052245598462 -0.14957850530071026 -0.18089268660731225 0.1972032392686885
0.156 -0.3157802100302015 0.07445084931247589 0.6510082522686966 -0.1534868739437454 0.6510082522686966 -0.15348687394374536 -0.17538130876318042 0.19849871845890066
0.16 -0.31488159947576927 0.07622408720457714 0.6501901170961031 -0.1573929637920977 0.650190117096103 -0.15739296379209763 -0.16991488164461516 0.19961910403690727
0.164 -0.313961587694504 0.07798707596250137 0.6493507852216158 -0.16129670315804212 0.6493507852216157 -0.16129670315804193 -0.16449872191563858 0.20056997932950912
0.168 -0.31302027673253463 0.07973956733307302 0.6484902221899305 -0.16519801936453515 0.6484902221899305 -0.16519801936453507 -0.15913772619999642 0.20135699320097786
0.172 -0.31205777126185513 0.08148131370055837 0.6476083929276428 -0.169096838722766 0.6476083929276426 -0.16909683872276593 -0.15383638439320388 0.20198583417395552
0.176 -0.3110741785869285 0.0832120681078006 0.64670526176043 -0.1729930865098913 0.64670526176043 -0.17299308650989123 -0.1485987940149902 0.2024622066871133
0.18 -0.31006960865130967 0.0849315842777404 0.6457807924306638 -0.1768866869469608 0.6457807924306637 -0.17688668694696083 -0.14342867538195261 0.20279180944491434
0.184 -0.30904417404427537 0.086639616635329 0.6448349481154527 -0.18077756317703972 0.6448349481154526 -0.18077756317703975 -0.13832938739853493 0.20298031579918316
0.188 -0.30799799000745254 0.08833592032984085 0.643867691445116 -0.1846656372435354 0.643867691445116 -0.18466563724353546 -0.13330394378284094 0.2030333560894346
0.192 -0.30693117444143436 0.09002025125759167 0.6428789845220889 -0.18855083006873372 0.6428789845220887 -0.18855083006873377 -0.12835502956199263 0.20295650185879166
0.196 -0.305843847912371 0.0916923660850682 0.641868788940258 -0.1924330614325523 0.641868788940258 -0.1924330614325523 -0.1234850176894678 0.20275525185461826
0.2 -0.3047361336585281 0.09335202227247717 0.6408370658047314 -0.19631224995151805 0.6408370658047315 -0.19631224995151803 -0.11869598565394641 0.20243501971744446
0.204 -0.3036081575967979 0.09499897809771753 0.6397837757520394 -0.20018831305797555 0.6397837757520392 -0.20018831305797538 -0.11398973196545872 0.20200112325811628
0.208 -0.3024600483291529 0.09663299268078243 0.6387088789707659 -0.20406116697953247 0.6387088789707657 -0.20406116697953236 -0.10936779241998076 0.20145877522114689
0.212 -0.30129193714903174 0.09825382600859799 0.6376123352226174 -0.2079307267187523 0.6376123352226174 -0.20793072671875226 -0.10483145605796634 0.20081307543171645
0.216 -0.30010395804764295 0.09986123896030052 0.6364941038639191 -0.21179690603309723 0.636494103863919 -0.2117969060330971 -0.10038178074560763 0.20006900422449134
0.22 -0.29889624772017526 0.10145499333296214 0.6353541438675462 -0.21565961741513265 0.6353541438675461 -0.21565961741513262 -0.09601960831983206 0.19923141705416839
0.224 -0.2976689455719041 0.10303485186776445 0.6341924138452868 -0.2195187720729998 0.6341924138452866 -0.2195187720729997 -0.09174557924919416 0.1983050401902425
0.228 -0.29642219372417816 0.10460057827662932 0.633008872070637 -0.22337427991116263 0.6330088720706365 -0.22337427991116246 -0.08756014677291708 0.19729446740177303
0.232 -0.2951561370202745 0.10615193726930824 0.6318034765020258 -0.22722604951143852 0.6318034765020257 -0.22722604951143843 -0.0834635904893956 0.19620415754172205
0.236 -0.29387092303111323 0.10768869458093551 0.6305761848064756 -0.23107398811432117 0.6305761848064753 -0.23107398811432128 -0.0794560293735645 0.1950384329446494
0.24 -0.2925667020608092 0.10921061700004922 0.6293269543836848 -0.23491800160060186 0.6293269543836848 -0.23491800160060192 -0.07553743420967336 0.19380147855603444
0.244 -0.29124362715205915 0.11071747239708285 0.6280557423905498 -0.23875799447329943 0.6280557423905498 -0.2387579944732991 -0.07170763943228815 0.19249734171617158
0.248 -0.2899018540913382 0.112209029753331 0.626762505766107 -0.24259386983990527 0.626762505766107 -0.2425938698399051 -0.06796635437378899 0.191129932526354
0.252 -0.28854154141390326 0.11368505919039323 0.6254472012569078 -0.24642552939495443 0.6254472012569078 -0.24642552939495446 -0.06431317392132987 0.1897030247298547
0.256 -0.2871628504085808 0.11514533200009745 0.6241097854428183 -0.25025287340292895 0.6241097854428183 -0.25025287340292884 -0.06074758859022877 0.1882202570449787
0.26 -0.2857659451223294 0.11658962067490539 0.6227502147632427 -0.25407580068150293 0.6227502147632425 -0.25407580068150293 -0.05726899402412688 0.18668513489212352
0.264 -0.2843509923645598 0.11801769893880343 0.6213684455437728 -0.25789420858513945 0.6213684455437726 -0.25789420858513934 -0.05387669993505355 0.1851010324613332
0.268 -0.28291816171120077 0.11942934177867885 0.6199644340232578 -0.2617079929890464 0.6199644340232575 -0.26170799298904607 -0.05056993849881595 0.1834711950712244
0.272 -0.28146762550849336 0.1208243254761849 0.6185381363812946 -0.26551704827350103 0.6185381363812945 -0.26551704827350087 -0.04734787222295102 0.1817987417743532
0.276 -0.27999955887649897 0.12220242764009395 0.6170895087661362 -0.26932126730855416 0.6170895087661359 -0.269321267308554 -0.04420960130590008 0.18008666816810712
0.28 -0.2785141397123073 0.12356342723914085 0.6156185073230153 -0.27312054143911907 0.6156185073230153 -0.2731205414391193 -0.04115417050711042 0.1783378493739946
0.284 -0.277011548692929 0.12490710463535722 0.6141250882228846 -0.27691476047046065 0.6141250882228844 -0.2769147604704605 -0.038180575548512494 0.17655504315176937
0.288 -0.2754919692778526 0.1262332416178939 0.6126092076915626 -0.2807038126540859 0.6126092076915625 -0.28070381265408595 -0.03528776906828643 0.17474089311818977
0.292 -0.27395558771125944 0.12754162143733694 0.6110708220392939 -0.28448758467405644 0.6110708220392936 -0.2844875846740563 -0.03247466614805585 0.172897932043324
0.296 -0.2724025930238703 0.12883202884050926 0.6095098876907095 -0.2882659616337204 0.6095098876907092 -0.28826596163372054 -0.02974014943467619 0.17102858520023684
0.3 -0.2708331770344162 0.13010425010576476 0.6079263612151939 -0.2920388270428853 0.6079263612151937 -0.29203882704288503 -0.027083073877637465 0.16913517374656994
0.304 -0.26924753435071075 0.13135807307876607 0.6063201993576475 -0.295806062805431 0.6063201993576474 -0.2958060628054311 -0.024502271102812626 0.1672199181190248
0.308 -0.267645862370314 0.13259328720875088 0.6046913590696468 -0.2995675492073831 0.6046913590696466 -0.2995675492073831 -0.02199655344287639 0.1652849414240348
0.312 -0.2660283612807646 0.13380968358527934 0.6030397975409933 -0.303323164905447 0.603039797540993 -0.30332316490544703 -0.01956471764421203 0.16333227281001658
0.316 -0.26439523405936977 0.1350070549754632 0.6013654722316539 -0.3070727869160205 0.6013654722316535 -0.3070727869160203 -0.017205548269544957 0.16136385080849028
0.32 -0.262746686472533 0.13618519586167266 0.5996683409040797 -0.3108162906046905 0.5996683409040795 -0.31081629060469046 -0.014917820814896617 0.15938152663311766
0.324 -0.2610829270746041 0.13734390247971837 0.597948361655908 -0.31455354967622723 0.5979483616559078 -0.3145535496762271 -0.01270030455876907 0.15738706742727337
0.328 -0.25940416720623316 0.1384829728575023 0.5962054929530337 -0.31828443616508234 0.5962054929530336 -0.3182844361650821 -0.010551765160744955 0.1553821594522083
0.332 -0.2577106209922145 0.13960220685413763 0.5944396936630537 -0.32200882042640677 0.5944396936630534 -0.3220088204264066 -0.008470967025954092 0.15336841120914776
0.336 -0.2560025053387991 0.14070140619952784 0.5926509230890707 -0.3257265711275931 0.5926509230890707 -0.32572657112759323 -0.006456675451097363 0.1513473564898316
0.34 -0.25428003993046555 0.14178037453440473 0.5908391410038596 -0.3294375552403578 0.5908391410038593 -0.3294375552403576 -0.0045076585669674134 0.1493204573510415
0.344 -0.25254344722612204 0.14283891745081578 0.5890043076843805 -0.3331416380333694 0.5890043076843804 -0.3331416380333693 -0.0026226890916514487 0.14728910700959816
0.348 -0.25079295245473315 0.14387684253305796 0.587146383946643 -0.33683868306543835 0.5871463839466429 -0.3368386830654385 -0.0008005459078573111 0.14525463265512345
0.352 -0.24902878361034714 0.14489395939904928 0.5852653311809065 -0.3405285521792744 0.5852653311809062 -0.3405285521792742 0.0009599845229306245 0.14321829817861467
0.356 -0.24725117144650696 0.14589007974213228 0.5833611113872138 -0.3442111054958231 0.5833611113872138 -0.34421110549582323 0.0026601068974660106 0.14118130681551444
0.36 -0.2454603494700326 0.14686501737330226 0.5814336872112532 -0.347886201409198 0.581433687211253 -0.3478862014091979 0.004301015947622193 0.13914480370252935
0.364 -0.24365655393415087 0.14781858826385094 0.5794830219805351 -0.35155369658220714 0.5794830219805351 -0.35155369658220703 0.005883895446511044 0.1371098783479608
0.368 -0.24184002383096162 0.14875061058841793 0.5775090797408836 -0.35521344594249804 0.5775090797408836 -0.3552134459424979 0.0074099173338509836 0.13507756701573176
0.372 -0.24001100088321622 0.1496609047684428 0.5755118252932276 -0.3588653026793218 0.5755118252932275 -0.35886530267932176 0.008880240951215104 0.13304885502368136
0.376 -0.2381697295353986 0.1505492935160042 0.5734912242306899 -0.36250911824093207 0.5734912242306897 -0.3625091182409318 0.01029601237839249 0.13102467895701572
0.38 -0.23631645694408607 0.1514156018780407 0.5714472429759602 -0.3661447423326274 0.5714472429759601 -0.3661447423326273 0.01165836386265252 0.12900592879808537
0.384 -0.23445143296757437 0.1522596572809393 0.569379848818947 -0.3697720229154495 0.569379848818947 -0.3697720229154496 0.012968413333248312 0.12699344997388815
0.388 -0.23257491015475096 0.153081289575484 0.5672890099546977 -0.373390806205545 0.5672890099546978 -0.37339080620554493 0.014227263994007493 0.12498804532289808
0.392 -0.23068714373319804 0.1538803310821484 0.5651746955215763 -0.3770009366742039 0.5651746955215761 -0.3770009366742037 0.015436003987342439 0.12299047698297734
0.396 -0.22878839159650938 0.15465661663672456 0.5630368756396913 -0.38060225704858436 0.5630368756396911 -0.3806022570485841 0.016595706123473906 0.12100146820226548
0.4 -0.2268789142908027 0.15540998363627598 0.5608755214495614 -0.3841946083131335 0.5608755214495612 -0.3841946083131335 0.017707427669096262 0.11902170507504052
0.404 -0.22495897500041367 0.15614027208539497 0.5586906051510102 -0.3877778297117163 0.5586906051510102 -0.3877778297117161 0.018772210190120035 0.11705183820462772
0.408 -0.22302883953275104 0.15684732464276033 0.5564821000422779 -0.39135175875045924 0.5564821000422777 -0.391351758750459 0.019791079443518683 0.11509248429549983
0.412 -0.22108877630230023 0.15753098666797244 0.5542499805593375 -0.3949162312013232 0.5542499805593375 -0.3949162312013231 0.02076504531365747 0.11314422767673862
0.416 -0.2191390563137567 0.1581911062686578 0.5519942223154091 -0.3984710811064136 0.5519942223154088 -0.39847108110641344 0.021695101788839564 0.11120762175906986
0.42 -0.21717995314427324 0.15882753434782354 0.5497148021406514 -0.4020161407830356 0.5497148021406514 -0.4020161407830356 0.02258222697410404 0.109283190427684
0.424 -0.21521174292480746 0.15944012465144744 0.5474116981220299 -0.4055512408295086 0.5474116981220299 -0.4055512408295083 0.02342738313662568 0.10737142937305943
0.428 -0.21323470432055047 0.16002873381628785 0.5450848896433376 -0.40907621013174583 0.5450848896433371 -0.4090762101317456 0.024231516780335367 0.10547280736199093
0.432 -0.21124911851042275 0.16059322141789484 0.5427343574253604 -0.4125908758706103 0.5427343574253601 -0.41259087587061016 0.0249955587466442 0.10358776745100685
0.436 -0.20925526916562434 0.16113345001880758 0.5403600835661787 -0.4160950635300559 0.5403600835661787 -0.4160950635300559 0.025720424338400105 0.10171672814433205
0.44 -0.20725344242722013 0.1616492852169176 0.5379620515815812 -0.4195885969060642 0.537962051581581 -0.4195885969060639 0.026407013464428634 0.09986008449851534
0.444 -0.20524392688274778 0.1621405956939797 0.5355402464455835 -0.4230712981163802 0.5355402464455833 -0.42307129811638006 0.027056210802223816 0.09801820917580543
0.448 -0.2032270135418343 0.162607253264254 0.5330946546310373 -0.4265429876110681 0.5330946546310372 -0.42654298761106824 0.02766888597655207 0.09619145344830832
0.452 -0.20120299581080764 0.16304913292325526 0.5306252641503132 -0.43000348418387924 0.530625264150313 -0.43000348418387924 0.02824589375191463 0.09438014815491755
0.456 -0.1991721694662861 0.16346611289659316 0.5281320645960399 -0.43345260498445476 0.5281320645960398 -0.4334526049844547 0.028788074236982982 0.09258460461295562
0.46 -0.19713483262773637 0.16385807468887983 0.5256150471818913 -0.43689016553136323 0.5256150471818912 -0.436890165531363 0.02929625309928305 0.09080511548640825
0.464 -0.1950912857289854 0.16422490313268542 0.5230742047833975 -0.4403159797259828 0.5230742047833973 -0.4403159797259826 0.02977124178854609 0.0890419556125845
0.468 -0.19304183148867177 0.16456648643751826 0.5205095319787691 -0.4437298598672364 0.520509531978769 -0.4437298598672363 0.030213837767284854 0.08729538278897439
0.472 -0.1909867748796285 0.16488271623880932 0.5179210250897156 -0.4471316166671883 0.5179210250897156 -0.447131616667188 0.03062482474727679 0.08556563852202417
0.476 -0.18892642309718038 0.16517348764687412 0.5153086822222417 -0.45052105926750335 0.5153086822222416 -0.450521059267503 0.031004972930751846 0.08385294873948693
