!Created with skrf (http://scikit-rf.org).
# GHz S RI R 50.0 
!freq ReS11 ImS11 ReS21 ImS21 ReS12 ImS12 ReS22 ImS22
0.0 0.6666666666666663 0.0 0.6666666666666666 0.0 0.6666666666666663 0.0 -0.3333333333333337 0.0
0.004 0.6666564314812761 -0.0039492206165192886 0.6666564314812763 -0.00394922061651929 0.6666564314812761 -0.0039492206165192886 -0.3331813139701838 0.007895791552087904
0.008 0.6666257254441063 -0.007898389256824439 0.6666257254441064 -0.007898389256824435 0.6666257254441063 -0.007898389256824439 -0.3327258030808178 0.01577559970532665
0.012 0.6665745471123619 -0.011847453918942447 0.6665745471123621 -0.011847453918942452 0.6665745471123619 -0.011847453918942447 -0.3319684375257421 0.023623533963973025
0.016 0.6665028940820574 -0.015796362549386243 0.6665028940820575 -0.015796362549386246 0.6665028940820574 -0.015796362549386243 -0.33091192968305816 0.03142388851533551
0.02 0.6664107629890262 -0.0197450630174065 0.6664107629890265 -0.0197450630174065 0.6664107629890262 -0.0197450630174065 -0.32956004412975215 0.039161231786614924
0.024 0.6662981495103331 -0.023693503089254365 0.6662981495103331 -0.023693503089254365 0.6662981495103331 -0.023693503089254365 -0.3279175655192952 0.04682049272439547
0.028 0.6661650483660907 -0.027641630402458407 0.6661650483660909 -0.027641630402458414 0.6661650483660907 -0.027641630402458407 -0.32599025816319693 0.05438704280929699
0.032 0.6660114533216825 -0.03158939244011969 0.6660114533216829 -0.031589392440119705 0.6660114533216825 -0.03158939244011969 -0.3237848179468378 0.061846772904046256
0.036 0.665837357190387 -0.035536736505228234 0.6658373571903872 -0.03553673650522825 0.665837357190387 -0.035536736505228234 -0.32130881731693933 0.06918616413535354
0.04 0.6656427518364076 -0.039483609695004945 0.6656427518364076 -0.03948360969500493 0.6656427518364076 -0.039483609695004945 -0.31857064416717534 0.07639235212544677
0.044 0.6654276281783099 -0.04342995887527234 0.6654276281783101 -0.043429958875272345 0.6654276281783099 -0.04342995887527234 -0.31557943551802964 0.08345318401457011
0.048 0.6651919761928606 -0.04737573065485795 0.6651919761928609 -0.04737573065485799 0.6651919761928606 -0.04737573065485795 -0.3123450069360853 0.09035726784767076
0.052 0.6649357849192752 -0.05132087136003423 0.6649357849192754 -0.05132087136003425 0.6649357849192752 -0.05132087136003423 -0.3088777786661917 0.09709401403332757
0.056 0.6646590424638709 -0.05526532700899825 0.6646590424638711 -0.05526532700899826 0.6646590424638709 -0.05526532700899825 -0.30518869945769694 0.1036536687172389
0.06 0.664361736005126 -0.0592090432863957 0.664361736005126 -0.05920904328639569 0.664361736005126 -0.0592090432863957 -0.30128916905410763 0.11002733904305162
0.064 0.6640438517991476 -0.06315196551789244 0.6640438517991476 -0.0631519655178925 0.6640438517991476 -0.06315196551789244 -0.29719096028558956 0.11620701039703159
0.068 0.663705375185546 -0.06709403864479821 0.663705375185546 -0.0670940386447982 0.663705375185546 -0.06709403864479821 -0.2929061416574968 0.12218555584750843
0.072 0.663346290593719 -0.07103520719874504 0.6633462905937193 -0.07103520719874501 0.663346290593719 -0.07103520719874504 -0.2884470012678912 0.12795673809310015
0.076 0.6629665815495446 -0.07497541527642616 0.6629665815495448 -0.07497541527642615 0.6629665815495446 -0.07497541527642616 -0.2838259728151745 0.13351520432382452
0.08 0.6625662306824829 -0.0789146065143984 0.6625662306824831 -0.07891460651439842 0.6625662306824829 -0.0789146065143984 -0.27905556437612095 0.1388564744752547
0.084 0.6621452197330898 -0.08285272406395178 0.6621452197330899 -0.0828527240639518 0.6621452197330898 -0.08285272406395178 -0.2741482905473577 0.14397692341726648
0.088 0.6617035295609414 -0.08678971056605185 0.6617035295609415 -0.08678971056605184 0.6617035295609414 -0.08678971056605185 -0.26911660845223545 0.14887375766551897
0.092 0.6612411401529702 -0.09072550812635731 0.6612411401529704 -0.09072550812635734 0.6612411401529702 -0.09072550812635731 -0.26397285802248 0.15354498723589344
0.096 0.6607580306322145 -0.09466005829031908 0.6607580306322147 -0.09466005829031912 0.6607580306322145 -0.09466005829031908 -0.2587292068721952 0.15798939328033706
0.1 0.660254179266981 -0.09859330201836315 0.6602541792669812 -0.09859330201836317 0.660254179266981 -0.09859330201836315 -0.25339759999268385 0.16220649214787683
0.104 0.6597295634804226 -0.10252517966116316 0.6597295634804227 -0.10252517966116312 0.6597295634804226 -0.10252517966116316 -0.24798971441179868 0.16619649650817808
0.108 0.6591841598605297 -0.10645563093500679 0.6591841598605299 -0.10645563093500683 0.6591841598605297 -0.10645563093500679 -0.24251691888250645 0.1699602741582897
0.112 0.6586179441705402 -0.11038459489726034 0.6586179441705404 -0.11038459489726037 0.6586179441705402 -0.11038459489726034 -0.23699023859311397 0.17349930510761896
0.116 0.6580308913597649 -0.11431200992193617 0.658030891359765 -0.11431200992193621 0.6580308913597649 -0.11431200992193617 -0.23142032482689157 0.17681563750324553
0.12 0.6574229755748294 -0.118237813675368 0.6574229755748295 -0.11823781367536804 0.6574229755748294 -0.118237813675368 -0.22581742944213354 0.17991184291892395
0.124 0.6567941701713381 -0.12216194309199879 0.6567941701713382 -0.12216194309199889 0.6567941701713381 -0.12216194309199879 -0.220191383995223 0.18279097148803386
0.128 0.6561444477259556 -0.1260843343502863 0.6561444477259559 -0.12608433435028638 0.6561444477259556 -0.1260843343502863 -0.21455158328898657 0.18545650731467644
0.132 0.6554737800489079 -0.1300049228487304 0.655473780048908 -0.13000492284873041 0.6554737800489079 -0.1300049228487304 -0.20890697309634965 0.18791232454938703
0.136 0.6547821381969073 -0.13392364318202904 0.6547821381969074 -0.13392364318202907 0.6547821381969073 -0.13392364318202904 -0.20326604178463112 0.1901626444676653
0.14 0.6540694924864977 -0.13784042911736644 0.6540694924864978 -0.13784042911736638 0.6540694924864977 -0.13784042911736644 -0.19763681554826654 0.192211993841708
0.144 0.6533358125078237 -0.14175521357083926 0.6533358125078238 -0.14175521357083926 0.6533358125078237 -0.14175521357083926 -0.19202685694671356 0.19406516484922903
0.148 0.6525810671388232 -0.14566792858402688 0.6525810671388234 -0.14566792858402694 0.6525810671388232 -0.14566792858402688 -0.18644326643911735 0.1957271767187382
0.152 0.651805224559846 -0.14957850530071015 0.6518052245598465 -0.14957850530071023 0.651805224559846 -0.14957850530071015 -0.18089268660731225 0.1972032392686884
0.156 0.6510082522686967 -0.15348687394374533 0.6510082522686966 -0.1534868739437454 0.6510082522686967 -0.15348687394374533 -0.17538130876318037 0.19849871845890057
0.16 0.6501901170961029 -0.1573929637920976 0.6501901170961031 -0.15739296379209775 0.6501901170961029 -0.1573929637920976 -0.1699148816446153 0.1996191040369074
0.164 0.6493507852216156 -0.1612967031580419 0.6493507852216159 -0.16129670315804204 0.6493507852216156 -0.1612967031580419 -0.16449872191563847 0.20056997932950907
0.168 0.6484902221899305 -0.16519801936453504 0.6484902221899306 -0.16519801936453515 0.6484902221899305 -0.16519801936453504 -0.15913772619999625 0.20135699320097789
0.172 0.6476083929276428 -0.16909683872276582 0.6476083929276428 -0.16909683872276599 0.6476083929276428 -0.16909683872276582 -0.15383638439320382 0.2019858341739554
0.176 0.6467052617604301 -0.17299308650989131 0.6467052617604301 -0.1729930865098913 0.6467052617604301 -0.17299308650989131 -0.14859879401499032 0.2024622066871135
0.18 0.6457807924306637 -0.1768866869469608 0.6457807924306639 -0.1768866869469608 0.6457807924306637 -0.1768866869469608 -0.14342867538195253 0.20279180944491415
0.184 0.6448349481154527 -0.18077756317703977 0.6448349481154527 -0.18077756317703972 0.6448349481154527 -0.18077756317703977 -0.13832938739853476 0.20298031579918294
0.188 0.643867691445116 -0.18466563724353535 0.6438676914451161 -0.1846656372435354 0.643867691445116 -0.18466563724353535 -0.13330394378284108 0.2030333560894345
0.192 0.6428789845220888 -0.18855083006873374 0.6428789845220888 -0.1885508300687337 0.6428789845220888 -0.18855083006873374 -0.12835502956199277 0.20295650185879163
0.196 0.6418687889402579 -0.19243306143255226 0.6418687889402581 -0.1924330614325523 0.6418687889402579 -0.19243306143255226 -0.12348501768946774 0.20275525185461832
0.2 0.6408370658047313 -0.196312249951518 0.6408370658047314 -0.19631224995151803 0.6408370658047313 -0.196312249951518 -0.1186959856539464 0.2024350197174444
0.204 0.6397837757520393 -0.2001883130579755 0.6397837757520394 -0.20018831305797558 0.6397837757520393 -0.2001883130579755 -0.11398973196545878 0.20200112325811645
0.208 0.638708878970766 -0.20406116697953258 0.6387088789707659 -0.20406116697953247 0.638708878970766 -0.20406116697953258 -0.10936779241998083 0.20145877522114694
0.212 0.6376123352226173 -0.20793072671875232 0.6376123352226175 -0.20793072671875223 0.6376123352226173 -0.20793072671875232 -0.10483145605796623 0.20081307543171648
0.216 0.6364941038639189 -0.2117969060330971 0.636494103863919 -0.21179690603309725 0.6364941038639189 -0.2117969060330971 -0.10038178074560769 0.2000690042244914
0.22 0.6353541438675462 -0.21565961741513273 0.6353541438675461 -0.21565961741513268 0.6353541438675462 -0.21565961741513273 -0.09601960831983207 0.1992314170541684
0.224 0.6341924138452866 -0.21951877207300002 0.6341924138452867 -0.21951877207299988 0.6341924138452866 -0.21951877207300002 -0.09174557924919419 0.1983050401902426
0.228 0.6330088720706366 -0.22337427991116257 0.6330088720706369 -0.2233742799111626 0.6330088720706366 -0.22337427991116257 -0.08756014677291707 0.1972944674017732
0.232 0.6318034765020258 -0.22722604951143854 0.631803476502026 -0.22722604951143854 0.6318034765020258 -0.22722604951143854 -0.08346359048939567 0.19620415754172216
0.236 0.6305761848064753 -0.23107398811432112 0.6305761848064755 -0.2310739881143212 0.6305761848064753 -0.23107398811432112 -0.07945602937356461 0.1950384329446493
0.24 0.6293269543836847 -0.23491800160060178 0.6293269543836849 -0.2349180016006019 0.6293269543836847 -0.23491800160060178 -0.07553743420967339 0.19380147855603433
0.244 0.6280557423905497 -0.23875799447329918 0.6280557423905498 -0.2387579944732993 0.6280557423905497 -0.23875799447329918 -0.07170763943228814 0.1924973417161717
0.248 0.6267625057661068 -0.24259386983990516 0.626762505766107 -0.24259386983990525 0.6267625057661068 -0.24259386983990516 -0.0679663543737889 0.19112993252635377
0.252 0.6254472012569079 -0.24642552939495438 0.6254472012569078 -0.24642552939495443 0.6254472012569079 -0.24642552939495438 -0.0643131739213299 0.18970302472985445
0.256 0.624109785442818 -0.25025287340292895 0.6241097854428184 -0.25025287340292895 0.624109785442818 -0.25025287340292895 -0.06074758859022875 0.18822025704497883
0.26 0.6227502147632425 -0.25407580068150293 0.6227502147632427 -0.2540758006815029 0.6227502147632425 -0.25407580068150293 -0.05726899402412679 0.18668513489212332
0.264 0.6213684455437725 -0.25789420858513945 0.6213684455437728 -0.25789420858513956 0.6213684455437725 -0.25789420858513945 -0.05387669993505372 0.18510103246133333
0.268 0.6199644340232576 -0.2617079929890462 0.6199644340232578 -0.2617079929890464 0.6199644340232576 -0.2617079929890462 -0.05056993849881587 0.18347119507122445
0.272 0.6185381363812945 -0.26551704827350087 0.6185381363812946 -0.2655170482735009 0.6185381363812945 -0.26551704827350087 -0.047347872222950955 0.18179874177435312
0.276 0.6170895087661359 -0.269321267308554 0.6170895087661361 -0.26932126730855394 0.6170895087661359 -0.269321267308554 -0.044209601305900174 0.18008666816810717
0.28 0.6156185073230153 -0.2731205414391191 0.6156185073230154 -0.27312054143911907 0.6156185073230153 -0.2731205414391191 -0.04115417050711042 0.17833784937399452
0.284 0.6141250882228845 -0.2769147604704606 0.6141250882228846 -0.27691476047046065 0.6141250882228845 -0.2769147604704606 -0.038180575548512466 0.17655504315176954
0.288 0.6126092076915625 -0.28070381265408606 0.6126092076915626 -0.280703812654086 0.6126092076915625 -0.28070381265408606 -0.03528776906828649 0.17474089311818963
0.292 0.6110708220392936 -0.2844875846740564 0.6110708220392937 -0.28448758467405644 0.6110708220392936 -0.2844875846740564 -0.03247466614805588 0.17289793204332402
0.296 0.6095098876907094 -0.2882659616337206 0.6095098876907095 -0.28826596163372037 0.6095098876907094 -0.2882659616337206 -0.02974014943467622 0.17102858520023695
0.3 0.6079263612151937 -0.29203882704288514 0.6079263612151938 -0.29203882704288525 0.6079263612151937 -0.29203882704288514 -0.02708307387763746 0.16913517374657017
0.304 0.6063201993576474 -0.29580606280543087 0.6063201993576474 -0.29580606280543104 0.6063201993576474 -0.29580606280543087 -0.02450227110281265 0.16721991811902454
0.308 0.6046913590696466 -0.2995675492073831 0.6046913590696467 -0.2995675492073831 0.6046913590696466 -0.2995675492073831 -0.021996553442876404 0.16528494142403485
0.312 0.603039797540993 -0.3033231649054469 0.6030397975409931 -0.3033231649054469 0.603039797540993 -0.3033231649054469 -0.019564717644212117 0.16333227281001636
0.316 0.6013654722316536 -0.30707278691602036 0.6013654722316538 -0.3070727869160205 0.6013654722316536 -0.30707278691602036 -0.017205548269544995 0.1613638508084903
0.32 0.5996683409040797 -0.3108162906046906 0.5996683409040797 -0.31081629060469057 0.5996683409040797 -0.3108162906046906 -0.014917820814896697 0.15938152663311758
0.324 0.5979483616559078 -0.31455354967622695 0.5979483616559079 -0.3145535496762272 0.5979483616559078 -0.31455354967622695 -0.012700304558768973 0.1573870674272732
0.328 0.5962054929530337 -0.3182844361650822 0.5962054929530337 -0.31828443616508234 0.5962054929530337 -0.3182844361650822 -0.01055176516074497 0.15538215945220832
0.332 0.5944396936630535 -0.32200882042640666 0.5944396936630536 -0.32200882042640666 0.5944396936630535 -0.32200882042640666 -0.008470967025954226 0.15336841120914782
0.336 0.5926509230890707 -0.32572657112759323 0.5926509230890707 -0.3257265711275932 0.5926509230890707 -0.32572657112759323 -0.006456675451097421 0.15134735648983139
0.34 0.5908391410038593 -0.32943755524035756 0.5908391410038596 -0.3294375552403577 0.5908391410038593 -0.32943755524035756 -0.0045076585669674655 0.14932045735104157
0.344 0.5890043076843803 -0.33314163803336944 0.5890043076843804 -0.33314163803336944 0.5890043076843803 -0.33314163803336944 -0.002622689091651656 0.14728910700959824
0.348 0.5871463839466429 -0.3368386830654383 0.5871463839466431 -0.3368386830654384 0.5871463839466429 -0.3368386830654383 -0.000800545907857439 0.1452546326551234
0.352 0.5852653311809062 -0.34052855217927436 0.5852653311809065 -0.34052855217927436 0.5852653311809062 -0.34052855217927436 0.0009599845229307927 0.14321829817861478
0.356 0.5833611113872137 -0.344211105495823 0.5833611113872137 -0.34421110549582307 0.5833611113872137 -0.344211105495823 0.0026601068974660396 0.14118130681551436
0.36 0.5814336872112531 -0.3478862014091979 0.5814336872112531 -0.34788620140919796 0.5814336872112531 -0.3478862014091979 0.0043010159476221275 0.13914480370252938
0.364 0.579483021980535 -0.3515536965822071 0.5794830219805351 -0.35155369658220714 0.579483021980535 -0.3515536965822071 0.0058838954465111944 0.13710987834796087
0.368 0.5775090797408835 -0.355213445942498 0.5775090797408836 -0.355213445942498 0.5775090797408835 -0.355213445942498 0.007409917333850939 0.13507756701573181
0.372 0.5755118252932275 -0.35886530267932176 0.5755118252932276 -0.3588653026793219 0.5755118252932275 -0.35886530267932176 0.008880240951215103 0.13304885502368122
0.376 0.5734912242306895 -0.3625091182409319 0.5734912242306898 -0.3625091182409319 0.5734912242306895 -0.3625091182409319 0.010296012378392479 0.13102467895701564
0.38 0.5714472429759601 -0.36614474233262734 0.5714472429759603 -0.3661447423326274 0.5714472429759601 -0.36614474233262734 0.01165836386265257 0.12900592879808537
0.384 0.5693798488189469 -0.3697720229154495 0.569379848818947 -0.36977202291544964 0.5693798488189469 -0.3697720229154495 0.012968413333248299 0.12699344997388817
0.388 0.5672890099546976 -0.3733908062055448 0.5672890099546977 -0.373390806205545 0.5672890099546976 -0.3733908062055448 0.014227263994007554 0.12498804532289808
0.392 0.5651746955215765 -0.37700093667420365 0.5651746955215764 -0.37700093667420387 0.5651746955215765 -0.37700093667420365 0.015436003987342507 0.12299047698297726
0.396 0.5630368756396911 -0.380602257048584 0.5630368756396912 -0.38060225704858436 0.5630368756396911 -0.380602257048584 0.016595706123473997 0.1210014682022655
0.4 0.5608755214495613 -0.3841946083131334 0.5608755214495613 -0.38419460831313346 0.5608755214495613 -0.3841946083131334 0.017707427669096124 0.11902170507504031
0.404 0.5586906051510101 -0.38777782971171637 0.5586906051510103 -0.3877778297117163 0.5586906051510101 -0.38777782971171637 0.018772210190120067 0.11705183820462772
0.408 0.5564821000422777 -0.3913517587504592 0.5564821000422779 -0.3913517587504592 0.5564821000422777 -0.3913517587504592 0.019791079443518596 0.11509248429549984
0.412 0.5542499805593375 -0.39491623120132313 0.5542499805593376 -0.39491623120132313 0.5542499805593375 -0.39491623120132313 0.020765045313657443 0.1131442276767387
0.416 0.5519942223154088 -0.3984710811064134 0.5519942223154091 -0.39847108110641355 0.5519942223154088 -0.3984710811064134 0.02169510178883955 0.11120762175906981
0.42 0.549714802140651 -0.4020161407830355 0.5497148021406513 -0.4020161407830356 0.549714802140651 -0.4020161407830355 0.022582226974103985 0.10928319042768392
0.424 0.5474116981220299 -0.40555124082950844 0.54741169812203 -0.4055512408295086 0.5474116981220299 -0.40555124082950844 0.02342738313662564 0.10737142937305946
0.428 0.5450848896433373 -0.4090762101317457 0.5450848896433375 -0.4090762101317458 0.5450848896433373 -0.4090762101317457 0.02423151678033528 0.10547280736199086
0.432 0.5427343574253602 -0.41259087587061033 0.5427343574253602 -0.4125908758706103 0.5427343574253602 -0.41259087587061033 0.024995558746644116 0.10358776745100685
0.436 0.5403600835661786 -0.41609506353005593 0.5403600835661787 -0.4160950635300559 0.5403600835661786 -0.41609506353005593 0.025720424338400112 0.101716728144332
0.44 0.537962051581581 -0.4195885969060638 0.5379620515815811 -0.41958859690606415 0.537962051581581 -0.4195885969060638 0.026407013464428607 0.09986008449851524
0.444 0.5355402464455835 -0.4230712981163801 0.5355402464455834 -0.42307129811638017 0.5355402464455835 -0.4230712981163801 0.027056210802223746 0.09801820917580539
0.448 0.5330946546310372 -0.42654298761106807 0.5330946546310373 -0.4265429876110681 0.5330946546310372 -0.42654298761106807 0.02766888597655204 0.09619145344830829
0.452 0.5306252641503131 -0.4300034841838791 0.5306252641503131 -0.4300034841838793 0.5306252641503131 -0.4300034841838791 0.028245893751914466 0.09438014815491742
0.456 0.5281320645960399 -0.4334526049844548 0.5281320645960399 -0.4334526049844548 0.5281320645960399 -0.4334526049844548 0.028788074236983038 0.09258460461295558
0.46 0.5256150471818913 -0.43689016553136306 0.5256150471818913 -0.4368901655313632 0.5256150471818913 -0.43689016553136306 0.029296253099283135 0.09080511548640842
0.464 0.5230742047833973 -0.4403159797259825 0.5230742047833974 -0.44031597972598263 0.5230742047833973 -0.4403159797259825 0.0297712417885461 0.0890419556125846
0.468 0.5205095319787689 -0.4437298598672363 0.5205095319787691 -0.44372985986723634 0.5205095319787689 -0.4437298598672363 0.030213837767284778 0.0872953827889744
0.472 0.5179210250897155 -0.44713161666718804 0.5179210250897157 -0.44713161666718815 0.5179210250897155 -0.44713161666718804 0.030624824747276836 0.08556563852202419
0.476 0.5153086822222416 -0.45052105926750297 0.5153086822222417 -0.4505210592675034 0.5153086822222416 -0.45052105926750297 0.0310049729307517 0.0838529487394869
